!  2-Port S-parameters saved by WinCal
! VAR MeasName=S-Parameters (CALIBRATED_DATA) read from VNA (N5245A)
! VAR MeasDate=4/1/2014 5:33:03 PM
! VAR NAME=01_OPEN
! VAR FILENAME=01_OPEN.s2p
! VAR DATE=4/1/2014 5:33:03 PM
! VAR PHYS_PORTS=1,2
! VAR ObjTypeName=DATASET
! VAR IndexType=Frequency
!
# Hz S RI R 50
10000000.000 +1.0029813051E+000 +1.1700310279E-003  -4.2737675831E-003 +1.8427503528E-003  +1.0232864879E-003 -2.6031746529E-003  +1.0007928610E+000 +2.5518182665E-003 
259950000.000 +1.0027245283E+000 -4.3734908104E-003  -8.2798808580E-004 +7.1595236659E-004  -3.9198232116E-004 -1.3355081901E-003  +1.0019125938E+000 -5.4114209488E-003 
509900000.000 +9.9900341034E-001 -7.5285667554E-003  +1.2382838177E-003 -3.5551670589E-004  +1.5650449786E-003 +5.2837579278E-004  +9.9847638607E-001 -4.4341450557E-003 
759850000.000 +9.9961507320E-001 -8.8516939431E-003  +2.7544371551E-004 +1.4869814040E-003  +6.2980136136E-005 +3.3599502058E-004  +1.0006639957E+000 -8.7287537754E-003 
1009800000.000 +9.9902528524E-001 -1.2558058836E-002  -5.4671551334E-004 +4.5755351312E-004  +2.3955722281E-004 +3.9405198186E-004  +9.9937278032E-001 -9.4652753323E-003 
1259750000.000 +1.0006330013E+000 -1.4480085112E-002  +3.1901558395E-004 -1.7948722234E-004  +5.9869018150E-004 +2.1298821957E-004  +9.9968492985E-001 -1.2397330254E-002 
1509700000.000 +9.9693340063E-001 -1.7025973648E-002  -1.0063976515E-003 -5.5320229148E-004  -8.5626012878E-004 +2.7539630537E-004  +1.0000387430E+000 -1.4866408892E-002 
1759650000.000 +9.9601101875E-001 -2.0974554121E-002  -1.8108547665E-003 -1.7085049767E-003  -1.2434162199E-003 -7.0142192999E-004  +9.9975955486E-001 -1.9063180313E-002 
2009600000.000 +9.9493020773E-001 -2.0168172196E-002  -5.0812866539E-003 +9.5442672318E-005  -5.5676978081E-003 +1.2239866192E-004  +9.9530380964E-001 -1.9203050062E-002 
2259550000.000 +9.9658238888E-001 -1.9974948838E-002  -2.6868903078E-003 +4.5201294124E-003  -2.0907565486E-003 +4.8959888518E-003  +9.9965363741E-001 -1.7807317898E-002 
2509500000.000 +9.9859631062E-001 -2.1720215678E-002  -1.5661582584E-003 +5.2822954021E-003  -1.2408681214E-003 +4.5973556116E-003  +9.9990588427E-001 -2.2356526926E-002 
2759450000.000 +1.0003426075E+000 -2.5390997529E-002  -1.6837647418E-003 +4.5454301871E-003  -1.6059052432E-003 +4.6081757173E-003  +9.9876165390E-001 -2.5356775150E-002 
3009400000.000 +9.9857741594E-001 -2.8112119064E-002  -2.4004904553E-003 +4.0181246586E-003  -1.9711777568E-003 +3.7641641684E-003  +9.9986350536E-001 -2.9309796169E-002 
3259350000.000 +9.9841201305E-001 -3.0905442312E-002  -1.5826056479E-003 +5.7010003366E-003  -2.7436478995E-003 +5.7865683921E-003  +1.0008897781E+000 -2.8106926009E-002 
3509300000.000 +9.9844419956E-001 -3.3893156797E-002  -1.7086613225E-003 +5.0973594189E-003  -1.8703424139E-003 +5.6794085540E-003  +1.0013734102E+000 -3.3063769341E-002 
3759250000.000 +9.9761664867E-001 -3.6264576018E-002  -1.7826951807E-003 +6.7890351638E-003  -1.6487900866E-003 +6.2334244139E-003  +9.9837684631E-001 -3.6493077874E-002 
4009200000.000 +9.9638980627E-001 -3.7623543292E-002  -2.1433632355E-003 +6.6335541196E-003  -1.6934667947E-003 +6.8911029957E-003  +1.0000418425E+000 -3.6852698773E-002 
4259150000.000 +9.9806421995E-001 -4.0746007115E-002  -1.7319051549E-003 +7.4219936505E-003  -1.5016589314E-003 +6.5900706686E-003  +9.9960649014E-001 -3.9414055645E-002 
4509100000.000 +9.9641394615E-001 -4.3166238815E-002  -2.3156867828E-003 +7.5546912849E-003  -2.1436796524E-003 +7.8058489598E-003  +9.9764585495E-001 -4.2483400553E-002 
4759050000.000 +9.9829608202E-001 -4.5897010714E-002  -2.0482384134E-003 +6.2367580831E-003  -1.9073018339E-003 +7.6411892660E-003  +1.0000277758E+000 -4.7657836229E-002 
5009000000.000 +9.9828171730E-001 -4.7892190516E-002  -1.6828961670E-003 +7.1843718179E-003  -2.4127622601E-003 +8.2806712016E-003  +9.9997752905E-001 -4.8013217747E-002 
5258950000.000 +9.9856799841E-001 -4.9072168767E-002  -2.1825104486E-003 +8.2048038021E-003  -1.3557783095E-003 +8.8158724830E-003  +9.9962025881E-001 -5.0650887191E-002 
5508900000.000 +9.9737578630E-001 -5.2681699395E-002  -2.6548209134E-003 +8.4439506754E-003  -2.3159675766E-003 +8.5652843118E-003  +9.9880069494E-001 -5.4851278663E-002 
5758850000.000 +9.9723297358E-001 -5.4932340980E-002  -1.1714870343E-003 +8.9255217463E-003  -1.6376222484E-003 +8.7786465883E-003  +9.9670863152E-001 -5.6572951376E-002 
6008800000.000 +9.9813908339E-001 -5.7912867516E-002  -1.8461887958E-003 +9.3619665131E-003  -1.3656812953E-003 +8.4270359948E-003  +9.9958634377E-001 -5.5759605020E-002 
6258750000.000 +9.9384444952E-001 -5.9456147254E-002  -2.0512153860E-003 +9.5866797492E-003  -1.2398556573E-003 +9.4109186903E-003  +9.9803823233E-001 -6.1164215207E-002 
6508700000.000 +9.9606657028E-001 -6.1140101403E-002  -2.2338172421E-003 +1.0291738436E-002  -2.4901533034E-003 +9.9639492109E-003  +9.9839383364E-001 -6.3646413386E-002 
6758650000.000 +9.9497210979E-001 -6.3247263432E-002  -1.9126564730E-003 +1.0169578716E-002  -2.1422393620E-003 +1.0783321224E-002  +9.9612849951E-001 -6.6560156643E-002 
7008600000.000 +9.9716174603E-001 -6.5806411207E-002  -1.6457636375E-003 +1.0818216950E-002  -2.6649483480E-003 +1.1172384024E-002  +9.9624454975E-001 -6.7857734859E-002 
7258550000.000 +9.9483668804E-001 -6.8876378238E-002  -3.5526184365E-003 +1.1999401264E-002  -2.9854045715E-003 +1.1814584024E-002  +9.9783867598E-001 -7.0778280497E-002 
7508500000.000 +9.9480146170E-001 -7.0860251784E-002  -3.6329019349E-003 +1.2162047438E-002  -3.4025970381E-003 +1.2201888487E-002  +9.9610543251E-001 -7.4542976916E-002 
7758450000.000 +9.9583846331E-001 -7.5060911477E-002  -2.6595357340E-003 +1.3174213469E-002  -2.5272292551E-003 +1.2888229452E-002  +9.9824494123E-001 -7.7042244375E-002 
8008400000.000 +9.9371320009E-001 -7.7277623117E-002  -2.9472124297E-003 +1.3133993372E-002  -3.4900591709E-003 +1.3081951067E-002  +9.9396920204E-001 -7.6894916594E-002 
8258350000.000 +9.9457198381E-001 -7.6081395149E-002  -3.6945315078E-003 +1.4015237801E-002  -3.4991423599E-003 +1.3480647467E-002  +9.9610358477E-001 -8.1142179668E-002 
8508300000.000 +9.9380433559E-001 -7.9904764891E-002  -4.0223668329E-003 +1.3898727484E-002  -3.9583644830E-003 +1.5216778032E-002  +9.9754595757E-001 -8.3593681455E-002 
8758250000.000 +9.9497300386E-001 -8.1135332584E-002  -4.5300833881E-003 +1.4927677810E-002  -4.2948517948E-003 +1.5034040436E-002  +9.9492996931E-001 -8.5597954690E-002 
9008200000.000 +9.9355101585E-001 -8.5771866143E-002  -5.1687574014E-003 +1.6360670328E-002  -3.9175683632E-003 +1.6936777160E-002  +9.9649161100E-001 -8.7062641978E-002 
9258150000.000 +9.9322742224E-001 -8.6452782154E-002  -4.6364916489E-003 +1.6671163961E-002  -4.3265596032E-003 +1.6608899459E-002  +9.9619013071E-001 -8.9380033314E-002 
9508100000.000 +9.9411988258E-001 -8.6799278855E-002  -4.2705913074E-003 +1.8454417586E-002  -3.7073490676E-003 +1.8381478265E-002  +9.9703699350E-001 -9.0338885784E-002 
9758050000.000 +9.9341183901E-001 -8.9399047196E-002  -3.6153171677E-003 +1.8980011344E-002  -3.2456386834E-003 +1.9460337237E-002  +9.9571174383E-001 -9.2457160354E-002 
10008000000.000 +9.9319034815E-001 -9.2007450759E-002  -4.4039599597E-003 +2.0623061806E-002  -3.4831725061E-003 +2.0307188854E-002  +9.9620014429E-001 -9.5180213451E-002 
10257950000.000 +9.9359554052E-001 -9.4523556530E-002  -2.3207988124E-003 +2.0668121055E-002  -3.1753287185E-003 +2.1206319332E-002  +9.9331629276E-001 -9.8674334586E-002 
10507900000.000 +9.9368941784E-001 -9.7789689898E-002  -2.8341896832E-003 +2.0522376522E-002  -3.4416287672E-003 +2.2138092667E-002  +9.9609214067E-001 -1.0279914737E-001 
10757850000.000 +9.9330204725E-001 -1.0000964254E-001  -2.9775367584E-003 +2.2406497970E-002  -3.1031721737E-003 +2.2084208205E-002  +9.9531245232E-001 -1.0318920761E-001 
11007800000.000 +9.9276149273E-001 -1.0179037601E-001  -3.2025247347E-003 +2.2849919274E-002  -3.0707751866E-003 +2.3329222575E-002  +9.9595689774E-001 -1.0662623495E-001 
11257750000.000 +9.9158835411E-001 -1.0444089770E-001  -2.0774218719E-003 +2.3463444784E-002  -1.4500712277E-003 +2.4625930935E-002  +9.9378788471E-001 -1.0717825592E-001 
11507700000.000 +9.9334692955E-001 -1.0520707816E-001  -2.8617538046E-003 +2.4802302942E-002  -2.0971051417E-003 +2.5416189805E-002  +9.9309390783E-001 -1.1087865382E-001 
11757650000.000 +9.9355435371E-001 -1.1008209735E-001  -7.1436940925E-004 +2.4989427999E-002  -8.9702935657E-004 +2.5131188333E-002  +9.9367749691E-001 -1.1327572167E-001 
12007600000.000 +9.9252074957E-001 -1.1167464405E-001  -6.9773214636E-004 +2.5628643110E-002  -1.1941457633E-003 +2.6368958876E-002  +9.9339467287E-001 -1.1556783319E-001 
12257550000.000 +9.9211239815E-001 -1.1408031732E-001  -4.9808603944E-004 +2.6701604947E-002  -1.5012633230E-004 +2.6528473943E-002  +9.9281287193E-001 -1.2155439705E-001 
12507500000.000 +9.9067425728E-001 -1.1703391373E-001  +3.6224341602E-004 +2.7075909078E-002  +4.9685626436E-005 +2.6514317840E-002  +9.9404615164E-001 -1.2172177434E-001 
12757450000.000 +9.9067568779E-001 -1.2031619996E-001  +5.5207969854E-004 +2.7134453878E-002  +1.2042751769E-003 +2.7334222570E-002  +9.9063533545E-001 -1.2406098843E-001 
13007400000.000 +9.8916995525E-001 -1.2194968015E-001  -2.5913126592E-005 +2.6949174702E-002  +1.2029386126E-003 +2.7948720381E-002  +9.9032145739E-001 -1.2781076133E-001 
13257350000.000 +9.8928159475E-001 -1.2394673377E-001  +1.9510504790E-003 +2.8333013877E-002  +1.9117769552E-003 +2.8432618827E-002  +9.9043977261E-001 -1.3081212342E-001 
13507300000.000 +9.9013638496E-001 -1.2805715203E-001  +1.3479768531E-003 +2.8992911801E-002  +2.1080216393E-003 +2.8869261965E-002  +9.8737388849E-001 -1.3275651634E-001 
13757250000.000 +9.8840612173E-001 -1.3120937347E-001  +2.3090215400E-003 +2.9671417549E-002  +1.8826703308E-003 +2.9099205509E-002  +9.8840939999E-001 -1.3493488729E-001 
14007200000.000 +9.8670995235E-001 -1.3386446238E-001  +2.5075587910E-003 +3.0144583434E-002  +2.2588076536E-003 +2.9780097306E-002  +9.8588609695E-001 -1.3800361753E-001 
14257150000.000 +9.8636043072E-001 -1.3364282250E-001  +3.2181949355E-003 +3.0008673668E-002  +2.1154338028E-003 +2.9962657019E-002  +9.8760908842E-001 -1.3818949461E-001 
14507100000.000 +9.8391860723E-001 -1.3616670668E-001  +3.4804157913E-003 +3.0236605555E-002  +3.4810928628E-003 +2.9940355569E-002  +9.8463732004E-001 -1.4180219173E-001 
14757050000.000 +9.8582875729E-001 -1.3814976811E-001  +3.0773251783E-003 +3.0963890254E-002  +2.8024974745E-003 +3.0912214890E-002  +9.8483604193E-001 -1.4271450043E-001 
15007000000.000 +9.8514914513E-001 -1.4196521044E-001  +3.2196377870E-003 +3.1496331096E-002  +3.4025425557E-003 +3.1349081546E-002  +9.8428022861E-001 -1.4521148801E-001 
15256950000.000 +9.8414742947E-001 -1.4216010273E-001  +4.3779732659E-003 +3.1944662333E-002  +3.6826767027E-003 +3.1540501863E-002  +9.8382312059E-001 -1.4776225388E-001 
15506900000.000 +9.8400259018E-001 -1.4491483569E-001  +3.0670785345E-003 +3.1532973051E-002  +2.6602288708E-003 +3.2396174967E-002  +9.8258543015E-001 -1.4777910709E-001 
15756850000.000 +9.8171544075E-001 -1.4688132703E-001  +4.4838404283E-003 +3.2498534769E-002  +4.7066174448E-003 +3.2297179103E-002  +9.8228842020E-001 -1.4868441224E-001 
16006800000.000 +9.8186832666E-001 -1.4712634683E-001  +4.4145644642E-003 +3.3501736820E-002  +4.0788101032E-003 +3.4635469317E-002  +9.8071587086E-001 -1.5204001963E-001 
16256750000.000 +9.7954767942E-001 -1.4864440262E-001  +4.2902519926E-003 +3.4373998642E-002  +4.1889878921E-003 +3.4305408597E-002  +9.8319780827E-001 -1.5414969623E-001 
16506700000.000 +9.8075377941E-001 -1.5023615956E-001  +3.5684045870E-003 +3.5453934222E-002  +4.7894241288E-003 +3.5506702960E-002  +9.8212760687E-001 -1.5541592240E-001 
16756650000.000 +9.8469328880E-001 -1.5124870837E-001  +4.0019536391E-003 +3.7188179791E-002  +4.7242790461E-003 +3.6893788725E-002  +9.8151457310E-001 -1.5636797249E-001 
17006600000.000 +9.8298186064E-001 -1.5341904759E-001  +4.6069901437E-003 +3.7574298680E-002  +4.5013143681E-003 +3.8255590945E-002  +9.8224806786E-001 -1.5795435011E-001 
17256550000.000 +9.8097437620E-001 -1.5699979663E-001  +4.6743103303E-003 +3.9049658924E-002  +6.1359596439E-003 +3.9156123996E-002  +9.8391222954E-001 -1.6024890542E-001 
17506500000.000 +9.8248696327E-001 -1.5892769396E-001  +5.7639540173E-003 +3.9982143790E-002  +5.9882355854E-003 +3.9403673261E-002  +9.8402374983E-001 -1.6382661462E-001 
17756450000.000 +9.8096430302E-001 -1.6042074561E-001  +6.1786733568E-003 +4.0627364069E-002  +5.8005666360E-003 +4.0719501674E-002  +9.8176413774E-001 -1.6572383046E-001 
18006400000.000 +9.7921437025E-001 -1.6150142252E-001  +7.4051446281E-003 +4.1412401944E-002  +8.1138545647E-003 +4.1113700718E-002  +9.8132497072E-001 -1.6944807768E-001 
18256350000.000 +9.7857069969E-001 -1.6588501632E-001  +9.0924473479E-003 +4.3089225888E-002  +8.8194441050E-003 +4.2607992887E-002  +9.8164755106E-001 -1.7136539519E-001 
18506300000.000 +9.7936803102E-001 -1.6689461470E-001  +1.0558738373E-002 +4.2863436043E-002  +9.6456939355E-003 +4.2893085629E-002  +9.7943377495E-001 -1.7564402521E-001 
18756250000.000 +9.7766947746E-001 -1.7042091489E-001  +1.0936026461E-002 +4.3615777045E-002  +1.1662203819E-002 +4.3137453496E-002  +9.8013222218E-001 -1.7566105723E-001 
19006200000.000 +9.7779965401E-001 -1.7025926709E-001  +1.1302001774E-002 +4.3224874884E-002  +1.1728879996E-002 +4.3500445783E-002  +9.7854793072E-001 -1.7991057038E-001 
19256150000.000 +9.7616165876E-001 -1.7501369119E-001  +1.2181897648E-002 +4.3270949274E-002  +1.2544852681E-002 +4.3813612312E-002  +9.7943705320E-001 -1.8305742741E-001 
19506100000.000 +9.7630268335E-001 -1.7619232833E-001  +1.3145124540E-002 +4.3772939593E-002  +1.3571125455E-002 +4.4784810394E-002  +9.7775411606E-001 -1.8501456082E-001 
19756050000.000 +9.7530686855E-001 -1.8123362958E-001  +1.3673120178E-002 +4.4816751033E-002  +1.5036877245E-002 +4.6081136912E-002  +9.7780901194E-001 -1.8933962286E-001 
20006000000.000 +9.7571438551E-001 -1.8082955480E-001  +1.5180741437E-002 +4.4317666441E-002  +1.7214423046E-002 +4.6019315720E-002  +9.7511708736E-001 -1.8761725724E-001 
20255950000.000 +9.7426629066E-001 -1.8232011795E-001  +1.6075860709E-002 +4.6063181013E-002  +1.7746200785E-002 +4.5987900347E-002  +9.7496330738E-001 -1.9163770974E-001 
20505900000.000 +9.7507870197E-001 -1.8534640968E-001  +1.7020013183E-002 +4.6187065542E-002  +1.7340147868E-002 +4.5221883804E-002  +9.7266411781E-001 -1.9160228968E-001 
20755850000.000 +9.7334837914E-001 -1.8703565001E-001  +1.8002562225E-002 +4.6286012977E-002  +1.8411014229E-002 +4.5909244567E-002  +9.7174298763E-001 -1.9489203393E-001 
21005800000.000 +9.7335493565E-001 -1.8734693527E-001  +1.8613444641E-002 +4.7034237534E-002  +1.8338616937E-002 +4.5978575945E-002  +9.7367197275E-001 -1.9630229473E-001 
21255750000.000 +9.7159904242E-001 -1.8952123821E-001  +1.9255576655E-002 +4.5447070152E-002  +1.9947957247E-002 +4.6395801008E-002  +9.7078037262E-001 -1.9913662970E-001 
21505700000.000 +9.7289228439E-001 -1.9231922925E-001  +1.8761714920E-002 +4.6181593090E-002  +2.0088225603E-002 +4.5550107956E-002  +9.7198742628E-001 -2.0003412664E-001 
21755650000.000 +9.7355973721E-001 -1.9448123872E-001  +2.0392946899E-002 +4.6523224562E-002  +2.1319067106E-002 +4.5876860619E-002  +9.6908849478E-001 -2.0245343447E-001 
22005600000.000 +9.7122800350E-001 -1.9572117925E-001  +2.1669659764E-002 +4.6605188400E-002  +2.1564651281E-002 +4.6108264476E-002  +9.6858334541E-001 -2.0437631011E-001 
22255550000.000 +9.7032809258E-001 -1.9882306457E-001  +2.2599393502E-002 +4.7115962952E-002  +2.2593900561E-002 +4.7709710896E-002  +9.7023481131E-001 -2.0452098548E-001 
22505500000.000 +9.6887582541E-001 -2.0015475154E-001  +2.3933827877E-002 +4.6450562775E-002  +2.4109758437E-002 +4.5715652406E-002  +9.7057271004E-001 -2.0795819163E-001 
22755450000.000 +9.6857011318E-001 -2.0125250518E-001  +2.3705994710E-002 +4.6561963856E-002  +2.5210998952E-002 +4.6686120331E-002  +9.6869504452E-001 -2.0944209397E-001 
23005400000.000 +9.6759110689E-001 -2.0296996832E-001  +2.6848407462E-002 +4.6874221414E-002  +2.7322655544E-002 +4.8488371074E-002  +9.6680283546E-001 -2.1325421333E-001 
23255350000.000 +9.6720308065E-001 -2.0608529449E-001  +2.7402844280E-002 +4.7351993620E-002  +2.7396604419E-002 +4.5394066721E-002  +9.6607065201E-001 -2.1317431331E-001 
23505300000.000 +9.6664476395E-001 -2.0625492930E-001  +2.7604030445E-002 +4.6569768339E-002  +2.8580890968E-002 +4.5762240887E-002  +9.6437847614E-001 -2.1386100352E-001 
23755250000.000 +9.6373635530E-001 -2.0910832286E-001  +2.8723264113E-002 +4.5784570277E-002  +2.8443682939E-002 +4.6248123050E-002  +9.6466833353E-001 -2.1520568430E-001 
24005200000.000 +9.6366769075E-001 -2.0984026790E-001  +2.9729586095E-002 +4.5439522713E-002  +2.9492769390E-002 +4.4691652060E-002  +9.6106040478E-001 -2.1827839315E-001 
24255150000.000 +9.6398341656E-001 -2.1175949275E-001  +3.0342722312E-002 +4.5249681920E-002  +3.0547246337E-002 +4.4392161071E-002  +9.6144783497E-001 -2.1854430437E-001 
24505100000.000 +9.6262913942E-001 -2.1284708381E-001  +3.0776288360E-002 +4.3857388198E-002  +3.1121032313E-002 +4.4575814158E-002  +9.6155309677E-001 -2.1774916351E-001 
24755050000.000 +9.6392685175E-001 -2.1363110840E-001  +3.0595954508E-002 +4.3801762164E-002  +3.0831458047E-002 +4.2867451906E-002  +9.6103972197E-001 -2.1988992393E-001 
25005000000.000 +9.6229279041E-001 -2.1546924114E-001  +3.0626857653E-002 +4.2556837201E-002  +3.0489601195E-002 +4.2501028627E-002  +9.6152693033E-001 -2.2108097374E-001 
25254950000.000 +9.6276092529E-001 -2.1423372626E-001  +3.0982375145E-002 +4.2901724577E-002  +3.1012179330E-002 +4.2832180858E-002  +9.6323662996E-001 -2.2318924963E-001 
25504900000.000 +9.6380567551E-001 -2.1811115742E-001  +3.1311742961E-002 +4.3077699840E-002  +3.1372413039E-002 +4.2564764619E-002  +9.6242535114E-001 -2.2545887530E-001 
25754850000.000 +9.6494930983E-001 -2.1773904562E-001  +3.1203629449E-002 +4.2365893722E-002  +3.0821600929E-002 +4.2285259813E-002  +9.6285742521E-001 -2.2811409831E-001 
26004800000.000 +9.6477663517E-001 -2.2074146569E-001  +3.0022883788E-002 +4.2080771178E-002  +3.0231796205E-002 +4.2703267187E-002  +9.6228367090E-001 -2.2855177522E-001 
26254750000.000 +9.6380335093E-001 -2.2521422803E-001  +2.9915161431E-002 +4.3069429696E-002  +3.0063750222E-002 +4.2669065297E-002  +9.6291643381E-001 -2.3223097622E-001 
26504700000.000 +9.6515136957E-001 -2.2573660314E-001  +3.0998175964E-002 +4.3457608670E-002  +3.0142206699E-002 +4.4068001211E-002  +9.6540486813E-001 -2.3656749725E-001 
26754650000.000 +9.6343320608E-001 -2.2760280967E-001  +2.8541272506E-002 +4.3702725321E-002  +2.9208980501E-002 +4.3981738389E-002  +9.6288961172E-001 -2.3561856151E-001 
27004600000.000 +9.6238040924E-001 -2.3308536410E-001  +3.2352454960E-002 +4.4314041734E-002  +3.1508199871E-002 +4.1624292731E-002  +9.6489924192E-001 -2.3973874748E-001 
27254550000.000 +9.6252274513E-001 -2.3224879801E-001  +3.2237797976E-002 +4.2985621840E-002  +3.2533638179E-002 +4.4988609850E-002  +9.6307796240E-001 -2.3833081126E-001 
27504500000.000 +9.6192377806E-001 -2.3578190804E-001  +2.9399806634E-002 +4.8228688538E-002  +3.3629726619E-002 +4.2863432318E-002  +9.6225386858E-001 -2.4008168280E-001 
27754450000.000 +9.6002739668E-001 -2.4206742644E-001  +3.2758604735E-002 +4.3573994190E-002  +3.2301895320E-002 +4.8139423132E-002  +9.6022325754E-001 -2.4397329986E-001 
28004400000.000 +9.5956212282E-001 -2.4065662920E-001  +3.3361151814E-002 +4.8090580851E-002  +3.3967059106E-002 +4.6118035913E-002  +9.6021270752E-001 -2.5061714649E-001 
28254350000.000 +9.5637220144E-001 -2.4176393449E-001  +3.5001553595E-002 +4.7468647361E-002  +3.4166585654E-002 +4.5756030828E-002  +9.6532106400E-001 -2.5244557858E-001 
