!  2-Port S-parameters saved by WinCal
! VAR MeasName=S-Parameters (CALIBRATED_DATA) read from VNA (N5245A)
! VAR MeasDate=4/1/2014 5:32:02 PM
! VAR NAME=01_SHORT
! VAR FILENAME=01_SHORT.s2p
! VAR DATE=4/1/2014 5:32:02 PM
! VAR PHYS_PORTS=1,2
! VAR ObjTypeName=DATASET
! VAR IndexType=Frequency
!
# Hz S RI R 50
10000000.000 -9.9469995499E-001 +1.8877938390E-002  +2.2413220722E-003 -3.0671455897E-003  -1.9296529936E-003 -1.9322916633E-003  -1.0106208324E+000 -2.6506793220E-003 
259950000.000 -1.0007278919E+000 -3.2269593794E-003  +3.8777725422E-004 +6.6625711042E-004  +7.2311988333E-004 +5.7395482145E-005  -1.0001674891E+000 -2.6607613545E-003 
509900000.000 -1.0010178089E+000 +2.8288133908E-003  +1.7761482159E-003 +1.5159731265E-004  +3.8882903755E-004 -7.3469843483E-004  -1.0004472733E+000 +6.5010255203E-003 
759850000.000 -1.0001171827E+000 +6.1044520698E-003  +4.7756292042E-004 +3.6392590846E-004  +6.9363106741E-004 +7.8927533468E-004  -9.9901795387E-001 +4.2539057322E-003 
1009800000.000 -9.9978649616E-001 +5.8820177801E-003  +7.7525078086E-004 +1.0489859851E-003  -4.2880003457E-004 +4.3979543261E-004  -9.9888181686E-001 +4.9704625271E-003 
1259750000.000 -9.9951249361E-001 +9.2064235359E-003  -5.0761533203E-004 +1.0665634181E-003  -7.1173759352E-005 +1.4093965292E-003  -1.0009818077E+000 +7.4989427812E-003 
1509700000.000 -9.9958086014E-001 +7.2340825573E-003  -2.8082280187E-004 +1.1833024910E-003  +3.4561604843E-004 +8.1464491086E-004  -1.0002338886E+000 +8.8428398594E-003 
1759650000.000 -9.9948793650E-001 +1.0279919952E-002  -3.6329165596E-006 +1.0060725035E-003  +6.8797031417E-004 +8.6985767120E-004  -9.9969846010E-001 +1.1571916752E-002 
2009600000.000 -1.0009578466E+000 +1.1824273504E-002  +7.1850616951E-004 +1.5310745221E-003  +1.4997406106E-004 +1.0344978655E-003  -9.9757784605E-001 +1.2173687108E-002 
2259550000.000 -1.0011466742E+000 +1.4256617054E-002  +3.2022333471E-004 +2.2578637581E-003  +6.0935801594E-004 +1.5993973939E-003  -9.9943858385E-001 +1.4682399109E-002 
2509500000.000 -1.0004973412E+000 +1.7177611589E-002  +1.7661014863E-004 +1.8279606011E-003  +1.7008883879E-004 +1.6076517059E-003  -9.9915909767E-001 +1.3695855625E-002 
2759450000.000 -9.9880701303E-001 +1.7903612927E-002  -1.0820698226E-003 +2.6715483982E-003  -4.1994059575E-004 +1.8429033225E-003  -1.0000832081E+000 +1.5150923282E-002 
3009400000.000 -9.9963504076E-001 +2.0469428971E-002  +1.2331355720E-005 +1.4552471694E-003  -2.6949020685E-004 +1.3954563765E-003  -9.9863487482E-001 +1.8752267584E-002 
3259350000.000 -1.0014362335E+000 +2.0717188716E-002  +7.8078114893E-004 +2.0533716306E-003  +7.2007148992E-004 +2.4459380656E-003  -9.9943250418E-001 +2.0684422925E-002 
3509300000.000 -9.9784249067E-001 +2.3148946464E-002  +5.3053797456E-004 +2.8629831504E-003  +2.6653146051E-005 +2.7057242114E-003  -9.9861663580E-001 +2.0433958620E-002 
3759250000.000 -1.0001753569E+000 +2.5386050344E-002  +2.0297023002E-004 +3.0038950499E-003  -2.0495413628E-004 +1.7518841196E-003  -9.9919784069E-001 +2.2440152243E-002 
4009200000.000 -9.9921625853E-001 +2.5268869475E-002  +6.9399007771E-005 +2.8165369295E-003  +7.3923110904E-005 +2.2308581974E-003  -9.9907708168E-001 +2.6479369029E-002 
4259150000.000 -9.9903327227E-001 +2.6431577280E-002  +4.8653288104E-005 +2.6407393161E-003  +3.9007954183E-004 +2.4102074094E-003  -9.9878692627E-001 +2.6353282854E-002 
4509100000.000 -1.0012990236E+000 +2.8813440353E-002  -1.9381605671E-004 +3.4858717117E-003  +3.3999426523E-004 +3.0377618968E-003  -9.9912118912E-001 +2.8832606971E-002 
4759050000.000 -9.9897974730E-001 +2.9814241454E-002  -1.9026228983E-004 +2.3033004254E-003  -2.8225671485E-005 +3.3821263351E-003  -9.9779009819E-001 +3.0211670324E-002 
5009000000.000 -9.9824726582E-001 +3.3243529499E-002  +2.7200803743E-004 +3.0334896874E-003  +4.0728735621E-004 +3.5911363084E-003  -9.9967235327E-001 +3.2753884792E-002 
5258950000.000 -9.9936443567E-001 +3.5106554627E-002  +3.4658558434E-004 +3.7902721670E-003  -5.2995799342E-004 +3.2311007380E-003  -9.9829751253E-001 +3.4214328974E-002 
5508900000.000 -9.9803346395E-001 +3.6386728287E-002  -1.7504670541E-004 +3.9113266394E-003  +9.5426687039E-005 +2.6666091289E-003  -9.9846798182E-001 +3.4901507199E-002 
5758850000.000 -9.9618005753E-001 +3.7003725767E-002  +1.7513324565E-004 +3.3340561204E-003  -5.7988410117E-004 +3.5144607536E-003  -9.9658805132E-001 +3.5024031997E-002 
6008800000.000 -9.9859422445E-001 +3.9489362389E-002  -2.2396841086E-004 +4.9488171935E-003  +4.1839931509E-004 +4.3644621037E-003  -9.9823421240E-001 +3.8976330310E-002 
6258750000.000 -9.9676156044E-001 +4.1477985680E-002  -1.0192299960E-003 +4.2403857224E-003  +3.5987315641E-005 +4.1734161787E-003  -9.9733936787E-001 +4.1753154248E-002 
6508700000.000 -9.9717199802E-001 +4.2951110750E-002  +3.2259128056E-004 +4.4711376540E-003  -3.6394599010E-004 +4.9236319028E-003  -9.9734508991E-001 +4.1185408831E-002 
6758650000.000 -9.9741631746E-001 +4.4208660722E-002  -5.4008478764E-004 +3.6730794236E-003  -1.5405676095E-003 +5.2937092260E-003  -9.9748462439E-001 +4.4067610055E-002 
7008600000.000 -9.9623483419E-001 +4.6839777380E-002  -1.2008552440E-003 +5.0631356426E-003  -1.3172499603E-003 +4.3664644472E-003  -9.9624902010E-001 +4.4927783310E-002 
7258550000.000 -9.9662566185E-001 +4.8591613770E-002  -8.7372690905E-004 +4.4547975995E-003  -1.0013588471E-003 +5.3663374856E-003  -9.9616175890E-001 +4.7153983265E-002 
7508500000.000 -9.9472135305E-001 +5.0371866673E-002  -1.4999546111E-003 +4.9938522279E-003  -1.4078298409E-004 +3.9089103229E-003  -9.9419158697E-001 +4.8625104129E-002 
7758450000.000 -9.9559468031E-001 +5.0928939134E-002  -1.5837787651E-003 +5.8156615123E-003  -1.9785508048E-003 +5.3013763390E-003  -9.9438488483E-001 +5.0158876926E-002 
8008400000.000 -9.9539446831E-001 +5.3139723837E-002  -1.2100712629E-003 +6.0379933566E-003  -1.8165515503E-003 +5.5980011821E-003  -9.9412381649E-001 +5.0790652633E-002 
8258350000.000 -9.9307596684E-001 +5.4088849574E-002  -1.7259548185E-003 +5.7716746815E-003  -6.2303507002E-004 +6.9305277430E-003  -9.9426436424E-001 +5.2187088877E-002 
8508300000.000 -9.9387705326E-001 +5.6725207716E-002  -2.0601914730E-003 +6.8636452779E-003  -2.1450123750E-003 +6.8034385331E-003  -9.9450856447E-001 +5.4106846452E-002 
8758250000.000 -9.9442297220E-001 +5.7920966297E-002  -1.7423273530E-003 +6.7607755773E-003  -2.3174851667E-003 +7.1816062555E-003  -9.9296867847E-001 +5.4354101419E-002 
9008200000.000 -9.9262863398E-001 +5.9125170112E-002  -1.0071224533E-003 +7.4647869915E-003  -1.2715654448E-003 +7.5978725217E-003  -9.9351108074E-001 +5.5310327560E-002 
9258150000.000 -9.9393182993E-001 +5.9788793325E-002  -9.0363767231E-004 +8.2896901295E-003  +9.4073642686E-005 +7.1018692106E-003  -9.9256646633E-001 +5.7122182101E-002 
9508100000.000 -9.9333554506E-001 +6.1850268394E-002  -1.3381812023E-003 +7.6053803787E-003  -1.3888446847E-003 +7.7309743501E-003  -9.9406796694E-001 +5.8249421418E-002 
9758050000.000 -9.9528563023E-001 +6.3968144357E-002  -5.2927964134E-005 +8.3183636889E-003  -2.2646936122E-003 +8.2705775276E-003  -9.9383848906E-001 +6.1816167086E-002 
10008000000.000 -9.9106025696E-001 +6.5974898636E-002  -1.0655870428E-003 +8.0329934135E-003  -1.1088746833E-003 +8.1152440980E-003  -9.9253869057E-001 +6.3516750932E-002 
10257950000.000 -9.9304735661E-001 +6.6370069981E-002  -9.4970699865E-004 +7.9797534272E-003  -6.3246517675E-004 +8.4290998057E-003  -9.9169850349E-001 +6.2989056110E-002 
10507900000.000 -9.9120962620E-001 +6.7937925458E-002  -1.0947682895E-003 +8.7939091027E-003  -1.1805904796E-003 +8.8557442650E-003  -9.9426978827E-001 +6.5600574017E-002 
10757850000.000 -9.9199581146E-001 +6.9478809834E-002  -1.1702252086E-003 +9.2288060114E-003  -5.9218489332E-004 +8.6284605786E-003  -9.9109023809E-001 +6.7302271724E-002 
11007800000.000 -9.9273633957E-001 +7.3065370321E-002  -1.2013965752E-003 +8.9910002425E-003  -1.0275526438E-003 +8.8444715366E-003  -9.9340373278E-001 +6.8008013070E-002 
11257750000.000 -9.9408251047E-001 +7.3759645224E-002  -4.5418430818E-004 +9.0471850708E-003  -1.3407340739E-003 +8.9463666081E-003  -9.9171990156E-001 +7.0181131363E-002 
11507700000.000 -9.9241119623E-001 +7.4893794954E-002  -1.5008018818E-003 +9.3133766204E-003  -7.2062673280E-004 +8.9878449216E-003  -9.9071574211E-001 +7.0582926273E-002 
11757650000.000 -9.9168395996E-001 +7.5542837381E-002  -1.6941467766E-003 +9.2272264883E-003  -1.8284019316E-003 +9.2178806663E-003  -9.9101585150E-001 +7.4721448123E-002 
12007600000.000 -9.9196892977E-001 +7.7683717012E-002  -2.3766802624E-003 +9.7333015874E-003  -1.9760257564E-003 +9.2019056901E-003  -9.8977452517E-001 +7.4271194637E-002 
12257550000.000 -9.8927533627E-001 +7.9675585032E-002  -1.5448086197E-003 +9.6869207919E-003  -2.1883705631E-003 +9.2761954293E-003  -9.9041277170E-001 +7.7027224004E-002 
12507500000.000 -9.8908776045E-001 +7.9900197685E-002  -1.2710143346E-003 +9.3820057809E-003  -2.7001274284E-003 +9.7412038594E-003  -9.9011057615E-001 +7.8684814274E-002 
12757450000.000 -9.8794150352E-001 +8.2594387233E-002  -2.2733423393E-003 +1.1317911558E-002  -2.9152431525E-003 +9.9904891104E-003  -9.8812061548E-001 +8.0058008432E-002 
13007400000.000 -9.8797845840E-001 +8.3650223911E-002  -3.6569901276E-003 +1.0441801511E-002  -3.2920073718E-003 +1.0825850070E-002  -9.8741900921E-001 +8.1066951156E-002 
13257350000.000 -9.8752421141E-001 +8.5085496306E-002  -3.4272745252E-003 +1.1851706542E-002  -3.3737202175E-003 +1.1695512570E-002  -9.8649227619E-001 +8.3140552044E-002 
13507300000.000 -9.8784607649E-001 +8.7582498789E-002  -2.9735127464E-003 +1.2581084855E-002  -3.2269768417E-003 +1.2288704515E-002  -9.8702293634E-001 +8.4020338953E-002 
13757250000.000 -9.8567873240E-001 +8.7276011705E-002  -4.0783886798E-003 +1.2405797839E-002  -3.5790600814E-003 +1.2930661440E-002  -9.8676776886E-001 +8.6057916284E-002 
14007200000.000 -9.8506778479E-001 +8.9983761311E-002  -4.6812640503E-003 +1.3500286266E-002  -2.4338888470E-003 +1.3060859405E-002  -9.8296535015E-001 +8.7859772146E-002 
14257150000.000 -9.8473852873E-001 +9.0834304690E-002  -5.4923077114E-003 +1.4149263501E-002  -3.8261918817E-003 +1.4389169402E-002  -9.8346596956E-001 +8.7309367955E-002 
14507100000.000 -9.8097240925E-001 +9.2740483582E-002  -4.9631241709E-003 +1.6358464956E-002  -5.4340190254E-003 +1.6073472798E-002  -9.8382693529E-001 +8.7684243917E-002 
14757050000.000 -9.8277223110E-001 +9.1641724110E-002  -4.1603092104E-003 +1.7679778859E-002  -3.9697722532E-003 +1.7518809065E-002  -9.8379927874E-001 +8.8321268559E-002 
15007000000.000 -9.8436409235E-001 +9.2099294066E-002  -2.7954080142E-003 +1.8606966361E-002  -3.4655735362E-003 +1.8395381048E-002  -9.8484754562E-001 +8.8741488755E-002 
15256950000.000 -9.8206263781E-001 +9.2734359205E-002  -2.6900887024E-003 +1.9562235102E-002  -2.8400144074E-003 +1.9149081782E-002  -9.8259431124E-001 +9.0315967798E-002 
15506900000.000 -9.8235630989E-001 +9.5589958131E-002  -1.4745165827E-003 +1.9431797788E-002  -1.0102874367E-003 +1.9598891959E-002  -9.8247462511E-001 +9.1347262263E-002 
15756850000.000 -9.8311060667E-001 +9.5795087516E-002  -9.4200717285E-004 +2.1160455421E-002  -5.2957114531E-004 +2.0681377500E-002  -9.8346459866E-001 +9.2386029661E-002 
16006800000.000 -9.8316287994E-001 +9.5344565809E-002  +8.4038812201E-004 +2.0787391812E-002  -1.5250517754E-004 +2.1264174953E-002  -9.8417961597E-001 +9.4132706523E-002 
16256750000.000 -9.8391294479E-001 +9.9168375134E-002  +1.3325057225E-003 +2.1189486608E-002  +1.0059516644E-003 +2.1939229220E-002  -9.8341250420E-001 +9.4984546304E-002 
16506700000.000 -9.8311835527E-001 +9.9582582712E-002  +1.7529362813E-003 +2.1087475121E-002  +2.4936853442E-003 +2.0709112287E-002  -9.8429292440E-001 +9.6330963075E-002 
16756650000.000 -9.8405271769E-001 +1.0232034326E-001  +3.5872084554E-003 +1.9808523357E-002  +3.0349970330E-003 +2.0696153864E-002  -9.8392319679E-001 +9.9138855934E-002 
17006600000.000 -9.8360192776E-001 +1.0513578355E-001  +3.2307801303E-003 +2.0475216210E-002  +2.8009812813E-003 +2.0686354488E-002  -9.8341065645E-001 +9.9454946816E-002 
17256550000.000 -9.8342281580E-001 +1.0458282381E-001  +3.5689373035E-003 +2.0379584283E-002  +3.9482880384E-003 +2.0578529686E-002  -9.8450535536E-001 +9.9565863609E-002 
17506500000.000 -9.8252165318E-001 +1.0732021183E-001  +3.2408947591E-003 +2.0175836980E-002  +3.7648123689E-003 +1.9181389362E-002  -9.8499536514E-001 +9.9741630256E-002 
17756450000.000 -9.8221164942E-001 +1.0702893883E-001  +4.1874004528E-003 +2.0170249045E-002  +4.5555238612E-003 +1.8882811069E-002  -9.8429161310E-001 +1.0291136801E-001 
18006400000.000 -9.8264980316E-001 +1.1009093374E-001  +3.9763902314E-003 +1.8366158009E-002  +4.8955827951E-003 +1.9514096901E-002  -9.8447442055E-001 +1.0562318563E-001 
18256350000.000 -9.8392421007E-001 +1.1062218994E-001  +3.5552466288E-003 +1.9292699173E-002  +3.1013295520E-003 +1.9431805238E-002  -9.8464834690E-001 +1.0687780380E-001 
18506300000.000 -9.8361545801E-001 +1.1486425251E-001  +3.5932080355E-003 +1.9564719871E-002  +2.8122342192E-003 +1.8387349322E-002  -9.8261648417E-001 +1.0921752453E-001 
18756250000.000 -9.8297464848E-001 +1.1674059182E-001  +4.0744724683E-003 +1.8352659419E-002  +3.9726379327E-003 +1.9144477323E-002  -9.8261171579E-001 +1.1416497827E-001 
19006200000.000 -9.8190641403E-001 +1.1971895397E-001  +4.1647073813E-003 +2.0867811516E-002  +2.9436803889E-003 +1.9011517987E-002  -9.8331815004E-001 +1.1359947920E-001 
19256150000.000 -9.8249226809E-001 +1.2331471592E-001  +5.5038593709E-003 +2.0734876394E-002  +3.3053765073E-003 +2.0793743432E-002  -9.8163723946E-001 +1.1632658541E-001 
19506100000.000 -9.8211771250E-001 +1.2416119874E-001  +3.1686432194E-003 +2.0882399753E-002  +4.8435446806E-003 +2.0005941391E-002  -9.7932136059E-001 +1.1772353947E-001 
19756050000.000 -9.7955036163E-001 +1.2362995744E-001  +5.0523024984E-003 +1.8968891352E-002  +2.3937043734E-003 +2.1022044122E-002  -9.7613662481E-001 +1.1961837858E-001 
20006000000.000 -9.7820860147E-001 +1.2293262035E-001  +3.9337528870E-003 +1.9975017756E-002  +4.2928890325E-003 +2.0973132923E-002  -9.7599971294E-001 +1.2012188882E-001 
20255950000.000 -9.7846621275E-001 +1.2520211935E-001  +3.6963396706E-003 +1.9462753087E-002  +4.7476897016E-003 +2.2020956501E-002  -9.7615081072E-001 +1.1902584881E-001 
20505900000.000 -9.7655159235E-001 +1.2802827358E-001  +5.0081289373E-003 +2.1669236943E-002  +4.4536883943E-003 +2.1066989750E-002  -9.7586345673E-001 +1.2094898522E-001 
20755850000.000 -9.7307884693E-001 +1.2734319270E-001  +5.0044930540E-003 +2.1581456065E-002  +4.0262239054E-003 +2.1472953260E-002  -9.7678470612E-001 +1.2167062610E-001 
21005800000.000 -9.7412323952E-001 +1.2895093858E-001  +4.4922726229E-003 +2.0672151819E-002  +5.1305508241E-003 +2.1604854614E-002  -9.7490906715E-001 +1.2291476130E-001 
21255750000.000 -9.7272861004E-001 +1.3122276962E-001  +6.5805525519E-003 +2.2279161960E-002  +6.2277191319E-003 +2.1848121658E-002  -9.7584414482E-001 +1.2072334439E-001 
21505700000.000 -9.7360789776E-001 +1.3088297844E-001  +6.2971636653E-003 +2.1905072033E-002  +5.5342516862E-003 +2.1517565474E-002  -9.7268587351E-001 +1.2453687191E-001 
21755650000.000 -9.7195577621E-001 +1.3274131715E-001  +6.4004627056E-003 +2.2148376331E-002  +4.7823069617E-003 +2.2273633629E-002  -9.7344547510E-001 +1.2509316206E-001 
22005600000.000 -9.7304975986E-001 +1.3144309819E-001  +5.3583914414E-003 +2.1957153454E-002  +4.8629958183E-003 +2.2740578279E-002  -9.7469317913E-001 +1.2409771234E-001 
22255550000.000 -9.7332477570E-001 +1.3423356414E-001  +5.5680419318E-003 +2.1190864965E-002  +6.0696420260E-003 +2.2285429761E-002  -9.7451168299E-001 +1.2626060843E-001 
22505500000.000 -9.7387611866E-001 +1.3609255850E-001  +5.2143423818E-003 +2.2283123806E-002  +6.3001238741E-003 +2.2976210341E-002  -9.7488731146E-001 +1.2821841240E-001 
22755450000.000 -9.7117304802E-001 +1.3746839762E-001  +5.5393725634E-003 +2.3134542629E-002  +5.9212278575E-003 +2.3354023695E-002  -9.7445899248E-001 +1.3064126670E-001 
23005400000.000 -9.7080063820E-001 +1.3547088206E-001  +5.8675017208E-003 +2.3667985573E-002  +5.7049104944E-003 +2.3207699880E-002  -9.7282403708E-001 +1.3071803749E-001 
23255350000.000 -9.7058838606E-001 +1.4088790119E-001  +6.0382322408E-003 +2.4011077359E-002  +6.6426307894E-003 +2.4892823771E-002  -9.7335988283E-001 +1.3374237716E-001 
23505300000.000 -9.6903246641E-001 +1.4163257182E-001  +6.7225852981E-003 +2.5478148833E-002  +5.9557640925E-003 +2.4743219838E-002  -9.7267013788E-001 +1.3458691537E-001 
23755250000.000 -9.6934300661E-001 +1.4089700580E-001  +8.1242118031E-003 +2.6283551008E-002  +7.4325818568E-003 +2.5736955926E-002  -9.7280561924E-001 +1.3591533899E-001 
24005200000.000 -9.6637123823E-001 +1.4532899857E-001  +9.8011204973E-003 +2.5498369709E-002  +8.7402872741E-003 +2.5560060516E-002  -9.7101503611E-001 +1.3659967482E-001 
24255150000.000 -9.6435463428E-001 +1.4577455819E-001  +9.9827889353E-003 +2.5623781607E-002  +9.6558835357E-003 +2.6835724711E-002  -9.6929103136E-001 +1.3788634539E-001 
24505100000.000 -9.6612441540E-001 +1.4544831216E-001  +9.4026178122E-003 +2.5982052088E-002  +9.5397736877E-003 +2.5781091303E-002  -9.6899449825E-001 +1.3823352754E-001 
24755050000.000 -9.6728903055E-001 +1.4609174430E-001  +1.0365065187E-002 +2.6674980298E-002  +9.9082300439E-003 +2.6107229292E-002  -9.7169500589E-001 +1.3877180219E-001 
25005000000.000 -9.6609055996E-001 +1.4766418934E-001  +1.2164641172E-002 +2.5982320309E-002  +1.2324877083E-002 +2.6157189161E-002  -9.6977883577E-001 +1.4216066897E-001 
25254950000.000 -9.6615684032E-001 +1.5039601922E-001  +1.2535255402E-002 +2.5529960170E-002  +1.2884612195E-002 +2.5282967836E-002  -9.7104036808E-001 +1.4241489768E-001 
25504900000.000 -9.6670657396E-001 +1.4717715979E-001  +1.3458031230E-002 +2.5277957320E-002  +1.2415670790E-002 +2.4976273999E-002  -9.6944928169E-001 +1.4385770261E-001 
25754850000.000 -9.6932953596E-001 +1.5228033066E-001  +1.3485280797E-002 +2.5550369173E-002  +1.4465272427E-002 +2.5004347786E-002  -9.7005891800E-001 +1.4553397894E-001 
26004800000.000 -9.6787440777E-001 +1.4827828109E-001  +1.4500819147E-002 +2.5980584323E-002  +1.4264196157E-002 +2.4787517264E-002  -9.7091120481E-001 +1.4586825669E-001 
26254750000.000 -9.6499383450E-001 +1.5214028955E-001  +1.5717500821E-002 +2.3850224912E-002  +1.4760327525E-002 +2.4361960590E-002  -9.7014957666E-001 +1.4782893658E-001 
26504700000.000 -9.6738284826E-001 +1.4857958257E-001  +1.5908965841E-002 +2.1636106074E-002  +1.5647487715E-002 +2.0925251767E-002  -9.6860623360E-001 +1.5028907359E-001 
26754650000.000 -9.6813309193E-001 +1.5245673060E-001  +1.3974851929E-002 +2.1470891312E-002  +1.5775542706E-002 +2.1600956097E-002  -9.7077095509E-001 +1.4865180850E-001 
27004600000.000 -9.6895414591E-001 +1.5043595433E-001  +1.5374681912E-002 +2.2007944062E-002  +1.6220409423E-002 +2.1932642907E-002  -9.7331815958E-001 +1.5032257140E-001 
27254550000.000 -9.6924465895E-001 +1.5458041430E-001  +1.3722388074E-002 +2.1632630378E-002  +1.2626873329E-002 +2.2307617590E-002  -9.7005033493E-001 +1.5091620386E-001 
27504500000.000 -9.6962755919E-001 +1.5580692887E-001  +1.4346418902E-002 +2.0663775504E-002  +1.4541720040E-002 +2.0480867475E-002  -9.6983355284E-001 +1.5220353007E-001 
27754450000.000 -9.7055655718E-001 +1.5787468851E-001  +1.6194492579E-002 +1.9751239568E-002  +1.4747563750E-002 +1.9331859425E-002  -9.7075718641E-001 +1.5423414111E-001 
28004400000.000 -9.7024047375E-001 +1.5783114731E-001  +1.6393726692E-002 +1.8898339942E-002  +1.3745618984E-002 +2.0529909059E-002  -9.6876609325E-001 +1.5537036955E-001 
28254350000.000 -9.6977287531E-001 +1.5912164748E-001  +1.2846308760E-002 +2.0980378613E-002  +1.3622268103E-002 +2.1883033216E-002  -9.7096383572E-001 +1.5516677499E-001 
