!  2-Port S-parameters saved by WinCal
! VAR MeasName=S-Parameters (CALIBRATED_DATA) read from VNA (N5245A)
! VAR MeasDate=4/1/2014 5:37:30 PM
! VAR NAME=02_T4_25_20ma_3V_0V98
! VAR FILENAME=02_T4_25_20ma_3V_0V98.s2p
! VAR DATE=4/1/2014 5:37:30 PM
! VAR PHYS_PORTS=1,2
! VAR ObjTypeName=DATASET
! VAR IndexType=Frequency
!
# Hz S RI R 50
10000000.000 +1.0028171539E+000 +2.5635822676E-003  -3.2447609901E+000 -3.6277730018E-002  -2.1669510752E-003 -2.2696985397E-003  +6.1208540201E-001 +5.4221730679E-002 
259950000.000 +9.9849158525E-001 -3.0882794410E-002  -3.1562492847E+000 +9.0309917927E-002  +1.0509325657E-003 +5.5606607348E-003  +6.2497204542E-001 -1.8708942458E-002 
509900000.000 +9.9917411804E-001 -5.8613024652E-002  -3.1281461716E+000 +1.6691480577E-001  +1.1046020081E-003 +9.7820963711E-003  +6.2473720312E-001 -3.3400062472E-002 
759850000.000 +9.9362057447E-001 -8.3575755358E-002  -3.1356592178E+000 +2.3197808862E-001  +9.9567323923E-004 +1.5514562838E-002  +6.2241762877E-001 -4.8041656613E-002 
1009800000.000 +9.8836612701E-001 -1.0974028707E-001  -3.1203036308E+000 +3.0144822598E-001  +1.7444560071E-003 +1.8348935992E-002  +6.1904710531E-001 -6.3915655017E-002 
1259750000.000 +9.8641419411E-001 -1.3542485237E-001  -3.1088221073E+000 +3.7449887395E-001  +2.6659872383E-003 +2.1464917809E-002  +6.1731636524E-001 -7.6408743858E-002 
1509700000.000 +9.7896265984E-001 -1.6174854338E-001  -3.0820143223E+000 +4.4796612859E-001  +3.0565815978E-003 +2.6008389890E-002  +6.1525231600E-001 -9.0953312814E-002 
1759650000.000 +9.7600036860E-001 -1.8620535731E-001  -3.0726804733E+000 +5.0738906860E-001  +2.8812622186E-003 +2.9167890549E-002  +6.1311143637E-001 -1.0241352767E-001 
2009600000.000 +9.6970081329E-001 -2.1425689757E-001  -3.0491120815E+000 +5.8129608631E-001  +1.5894694952E-003 +3.5617381334E-002  +6.1172086000E-001 -1.2098192424E-001 
2259550000.000 +9.5952999592E-001 -2.4122980237E-001  -3.0260474682E+000 +6.5333676338E-001  +4.9440702423E-003 +4.3514680117E-002  +6.0459935665E-001 -1.3714118302E-001 
2509500000.000 +9.5332759619E-001 -2.6441249251E-001  -3.0072526932E+000 +7.0523530245E-001  +7.2912690230E-003 +4.6085003763E-002  +5.9904706478E-001 -1.4832146466E-001 
2759450000.000 +9.4330304861E-001 -2.9024475813E-001  -2.9874141216E+000 +7.7904182673E-001  +1.0600809008E-002 +4.9641635269E-002  +5.9647649527E-001 -1.6337616742E-001 
3009400000.000 +9.3614870310E-001 -3.1429478526E-001  -2.9620368481E+000 +8.3914440870E-001  +1.1377019808E-002 +5.2968468517E-002  +5.9197717905E-001 -1.7765867710E-001 
3259350000.000 +9.2317169905E-001 -3.3745732903E-001  -2.9294250011E+000 +9.0192854404E-001  +1.3948544860E-002 +5.8990348130E-002  +5.8577424288E-001 -1.9156369567E-001 
3509300000.000 +9.1116601229E-001 -3.6129331589E-001  -2.8940749168E+000 +9.6892070770E-001  +1.5358190984E-002 +6.1887908727E-002  +5.7865494490E-001 -2.0453223586E-001 
3759250000.000 +8.9794075489E-001 -3.8419091702E-001  -2.8656532764E+000 +1.0260468721E+000  +1.8620215356E-002 +6.4794570208E-002  +5.7105964422E-001 -2.1832877398E-001 
4009200000.000 +8.8553684950E-001 -4.0577593446E-001  -2.8259289265E+000 +1.0930169821E+000  +2.0455434918E-002 +6.9971330464E-002  +5.6566107273E-001 -2.2999179363E-001 
4259150000.000 +8.7272089720E-001 -4.2851349711E-001  -2.7968859673E+000 +1.1452611685E+000  +2.4884587154E-002 +7.3523268104E-002  +5.5820494890E-001 -2.4387674034E-001 
4509100000.000 +8.5581606627E-001 -4.4798529148E-001  -2.7533895969E+000 +1.2025147676E+000  +2.7209222317E-002 +7.6548971236E-002  +5.5042999983E-001 -2.5471699238E-001 
4759050000.000 +8.4438347816E-001 -4.6660810709E-001  -2.7264249325E+000 +1.2478590012E+000  +2.9996007681E-002 +8.0028146505E-002  +5.4265385866E-001 -2.6791787148E-001 
5009000000.000 +8.3058047295E-001 -4.8743650317E-001  -2.6809806824E+000 +1.3009351492E+000  +3.2502111048E-002 +8.2713291049E-002  +5.3629887104E-001 -2.7794021368E-001 
5258950000.000 +8.1589162350E-001 -5.0647825003E-001  -2.6437706947E+000 +1.3509117365E+000  +3.5805959255E-002 +8.5766114295E-002  +5.2751034498E-001 -2.8992584348E-001 
5508900000.000 +8.0009484291E-001 -5.2506709099E-001  -2.6049311161E+000 +1.4091122150E+000  +3.9034064859E-002 +8.7598577142E-002  +5.1838326454E-001 -3.0103901029E-001 
5758850000.000 +7.8444987535E-001 -5.4434370995E-001  -2.5583362579E+000 +1.4483393431E+000  +4.2240098119E-002 +9.0709857643E-002  +5.0976383686E-001 -3.1096416712E-001 
6008800000.000 +7.6778250933E-001 -5.5969733000E-001  -2.5099408627E+000 +1.4987293482E+000  +4.5012190938E-002 +9.3462221324E-002  +5.0207275152E-001 -3.2031801343E-001 
6258750000.000 +7.4946713448E-001 -5.7507038116E-001  -2.4670355320E+000 +1.5380557775E+000  +4.8368796706E-002 +9.5823980868E-002  +4.9264937639E-001 -3.3283084631E-001 
6508700000.000 +7.3175090551E-001 -5.9202462435E-001  -2.4232461452E+000 +1.5860503912E+000  +5.0561811775E-002 +9.8346166313E-002  +4.8230960965E-001 -3.4064763784E-001 
6758650000.000 +7.1337395906E-001 -6.0350483656E-001  -2.3709948063E+000 +1.6245197058E+000  +5.4486081004E-002 +1.0101065040E-001  +4.7339552641E-001 -3.4918737411E-001 
7008600000.000 +6.9802898169E-001 -6.2242758274E-001  -2.3296577930E+000 +1.6595185995E+000  +5.9078037739E-002 +1.0287352651E-001  +4.6390667558E-001 -3.5709190369E-001 
7258550000.000 +6.7806035280E-001 -6.3445967436E-001  -2.2768557072E+000 +1.6949083805E+000  +6.1721801758E-002 +1.0496416688E-001  +4.5518732071E-001 -3.6771225929E-001 
7508500000.000 +6.6012382507E-001 -6.4707285166E-001  -2.2304451466E+000 +1.7349035740E+000  +6.5956890583E-002 +1.0696318001E-001  +4.4499725103E-001 -3.7511873245E-001 
7758450000.000 +6.4123976231E-001 -6.6137522459E-001  -2.1774072647E+000 +1.7661395073E+000  +6.9072231650E-002 +1.0788147897E-001  +4.3555432558E-001 -3.8365378976E-001 
8008400000.000 +6.2376576662E-001 -6.7346823215E-001  -2.1298062801E+000 +1.7959253788E+000  +7.2698004544E-002 +1.0980750620E-001  +4.2553487420E-001 -3.8743540645E-001 
8258350000.000 +6.0572749376E-001 -6.8194496632E-001  -2.0772039890E+000 +1.8265913725E+000  +7.6021060348E-002 +1.1168228090E-001  +4.1609573364E-001 -3.9627680182E-001 
8508300000.000 +5.8721876144E-001 -6.9206935167E-001  -2.0237379074E+000 +1.8487788439E+000  +7.9477183521E-002 +1.1302413046E-001  +4.0487939119E-001 -4.0297865868E-001 
8758250000.000 +5.6763505936E-001 -7.0300847292E-001  -1.9715386629E+000 +1.8806312084E+000  +8.3099164069E-002 +1.1449847370E-001  +3.9604598284E-001 -4.0981370211E-001 
9008200000.000 +5.4851502180E-001 -7.1172058582E-001  -1.9208687544E+000 +1.8966876268E+000  +8.5942484438E-002 +1.1577475071E-001  +3.8534000516E-001 -4.1655412316E-001 
9258150000.000 +5.2963930368E-001 -7.1813613176E-001  -1.8655627966E+000 +1.9171577692E+000  +8.9700363576E-002 +1.1692889035E-001  +3.7466701865E-001 -4.2212888598E-001 
9508100000.000 +5.1228243113E-001 -7.2539085150E-001  -1.8194998503E+000 +1.9331951141E+000  +9.3475930393E-002 +1.1830221117E-001  +3.6592474580E-001 -4.2737075686E-001 
9758050000.000 +4.9526417255E-001 -7.2998094559E-001  -1.7692579031E+000 +1.9479643106E+000  +9.6364691854E-002 +1.1895073950E-001  +3.5585367680E-001 -4.3242767453E-001 
10008000000.000 +4.7521707416E-001 -7.3823976517E-001  -1.7233259678E+000 +1.9769314528E+000  +1.0242670029E-001 +1.2017565221E-001  +3.4768936038E-001 -4.3778979778E-001 
10257950000.000 +4.5616021752E-001 -7.4384677410E-001  -1.6675287485E+000 +1.9940003157E+000  +1.0558544099E-001 +1.1976145953E-001  +3.3711192012E-001 -4.4066283107E-001 
10507900000.000 +4.3889951706E-001 -7.5117111206E-001  -1.6262049675E+000 +2.0011541843E+000  +1.0978352278E-001 +1.1942578852E-001  +3.2463440299E-001 -4.4622391462E-001 
10757850000.000 +4.2074400187E-001 -7.5525438786E-001  -1.5734490156E+000 +2.0168657303E+000  +1.1264519393E-001 +1.2073579431E-001  +3.1605669856E-001 -4.5009756088E-001 
11007800000.000 +4.0279036760E-001 -7.6061886549E-001  -1.5260018110E+000 +2.0313315392E+000  +1.1607400328E-001 +1.2053276598E-001  +3.0436429381E-001 -4.5318186283E-001 
11257750000.000 +3.8442263007E-001 -7.6166284084E-001  -1.4739766121E+000 +2.0369431973E+000  +1.1968310177E-001 +1.2031454593E-001  +2.9553425312E-001 -4.5410203934E-001 
11507700000.000 +3.6819490790E-001 -7.6817339659E-001  -1.4357811213E+000 +2.0471129417E+000  +1.2411970645E-001 +1.2033364922E-001  +2.8410410881E-001 -4.5665898919E-001 
11757650000.000 +3.4820768237E-001 -7.7173620462E-001  -1.3861683607E+000 +2.0585336685E+000  +1.2745864689E-001 +1.1887871474E-001  +2.7595239878E-001 -4.5992296934E-001 
12007600000.000 +3.3317616582E-001 -7.7241557837E-001  -1.3355393410E+000 +2.0613088608E+000  +1.3050034642E-001 +1.2003214657E-001  +2.6744100451E-001 -4.6379694343E-001 
12257550000.000 +3.1652030349E-001 -7.7368968725E-001  -1.2909256220E+000 +2.0689382553E+000  +1.3445429504E-001 +1.1903651804E-001  +2.5616231561E-001 -4.6658131480E-001 
12507500000.000 +2.9735931754E-001 -7.7372348309E-001  -1.2420994043E+000 +2.0744357109E+000  +1.3794772327E-001 +1.1879156530E-001  +2.4759081006E-001 -4.6824291348E-001 
12757450000.000 +2.8237855434E-001 -7.7419292927E-001  -1.1976976395E+000 +2.0734190941E+000  +1.4113087952E-001 +1.1715035141E-001  +2.3556840420E-001 -4.6780070662E-001 
13007400000.000 +2.6635974646E-001 -7.7417832613E-001  -1.1504182816E+000 +2.0768053532E+000  +1.4453116059E-001 +1.1565604061E-001  +2.2812041640E-001 -4.7005856037E-001 
13257350000.000 +2.4908085167E-001 -7.7606070042E-001  -1.1004066467E+000 +2.0753114223E+000  +1.4661259949E-001 +1.1510876566E-001  +2.1725110710E-001 -4.7052797675E-001 
13507300000.000 +2.3217873275E-001 -7.7842551470E-001  -1.0635318756E+000 +2.0853483677E+000  +1.5002398193E-001 +1.1295596510E-001  +2.0712052286E-001 -4.7045087814E-001 
13757250000.000 +2.1599389613E-001 -7.7413523197E-001  -1.0175883770E+000 +2.0742814541E+000  +1.5304082632E-001 +1.1272905767E-001  +1.9898788631E-001 -4.7252714634E-001 
14007200000.000 +1.9800296426E-001 -7.7310138941E-001  -9.6835774183E-001 +2.0695960522E+000  +1.5550675988E-001 +1.1091259122E-001  +1.9082623720E-001 -4.7023096681E-001 
14257150000.000 +1.8787498772E-001 -7.6728987694E-001  -9.2570888996E-001 +2.0596728325E+000  +1.5939149261E-001 +1.0815342516E-001  +1.8327818811E-001 -4.7065305710E-001 
14507100000.000 +1.7481915653E-001 -7.6410698891E-001  -8.8583201170E-001 +2.0527238846E+000  +1.6007989645E-001 +1.0792867839E-001  +1.7322295904E-001 -4.6561712027E-001 
14757050000.000 +1.6346487403E-001 -7.6338672638E-001  -8.5011762381E-001 +2.0376682281E+000  +1.6184774041E-001 +1.0685757548E-001  +1.6948540509E-001 -4.6644020081E-001 
15007000000.000 +1.4868780971E-001 -7.6020336151E-001  -8.1060558558E-001 +2.0293142796E+000  +1.6365124285E-001 +1.0491228104E-001  +1.6154703498E-001 -4.6556952596E-001 
15256950000.000 +1.3988541067E-001 -7.5902444124E-001  -7.8086912632E-001 +2.0187351704E+000  +1.6489073634E-001 +1.0449614376E-001  +1.5736857057E-001 -4.6579244733E-001 
15506900000.000 +1.2544317544E-001 -7.5896477699E-001  -7.4548602104E-001 +2.0138471127E+000  +1.6626527905E-001 +1.0381805152E-001  +1.5016505122E-001 -4.6547520161E-001 
15756850000.000 +1.1317995936E-001 -7.5405263901E-001  -7.1520811319E-001 +1.9973006248E+000  +1.6937886178E-001 +1.0220528394E-001  +1.4423346519E-001 -4.6482244134E-001 
16006800000.000 +1.0051072389E-001 -7.5140833855E-001  -6.7451840639E-001 +1.9872084856E+000  +1.7046174407E-001 +1.0163296759E-001  +1.3628052175E-001 -4.6402046084E-001 
16256750000.000 +9.3695968390E-002 -7.4908894300E-001  -6.5426909924E-001 +1.9786453247E+000  +1.7193803191E-001 +9.9851801991E-002  +1.3162532449E-001 -4.6462196112E-001 
16506700000.000 +8.1439912319E-002 -7.4682277441E-001  -6.1956632137E-001 +1.9669055939E+000  +1.7480655015E-001 +9.9132731557E-002  +1.2501469254E-001 -4.6590000391E-001 
16756650000.000 +6.8427175283E-002 -7.4769473076E-001  -5.9150791168E-001 +1.9618002176E+000  +1.7668731511E-001 +9.9143512547E-002  +1.1989723891E-001 -4.6592697501E-001 
17006600000.000 +5.7987965643E-002 -7.4615114927E-001  -5.6540888548E-001 +1.9539780617E+000  +1.7849628627E-001 +9.7933299839E-002  +1.1334006488E-001 -4.6519714594E-001 
17256550000.000 +4.7050070018E-002 -7.4161100388E-001  -5.3490370512E-001 +1.9440823793E+000  +1.8070481718E-001 +9.6966087818E-002  +1.0629421473E-001 -4.6586823463E-001 
17506500000.000 +3.4879554063E-002 -7.3846012354E-001  -5.0757849216E-001 +1.9319132566E+000  +1.8290559947E-001 +9.5158688724E-002  +1.0135054588E-001 -4.6586322784E-001 
17756450000.000 +2.6401732117E-002 -7.3647177219E-001  -4.8157671094E-001 +1.9209138155E+000  +1.8571983278E-001 +9.3739956617E-002  +9.3281231821E-002 -4.6470400691E-001 
18006400000.000 +1.4989722520E-002 -7.3098826408E-001  -4.5040470362E-001 +1.9135469198E+000  +1.8729367852E-001 +9.2239022255E-002  +8.3839736879E-002 -4.6236705780E-001 
18256350000.000 +3.6368223373E-003 -7.2936868668E-001  -4.2875337601E-001 +1.9007713795E+000  +1.8922853470E-001 +9.1806791723E-002  +8.0144397914E-002 -4.6166342497E-001 
18506300000.000 -6.4449515194E-003 -7.2436064482E-001  -3.9939191937E-001 +1.8881555796E+000  +1.9141015410E-001 +8.9730866253E-002  +7.2334699333E-002 -4.5885226130E-001 
18756250000.000 -1.4618603513E-002 -7.2271645069E-001  -3.7303200364E-001 +1.8787281513E+000  +1.9309370220E-001 +8.8509351015E-002  +6.8518109620E-002 -4.5689803362E-001 
19006200000.000 -2.6278516278E-002 -7.1808248758E-001  -3.4875845909E-001 +1.8679907322E+000  +1.9378432631E-001 +8.7415874004E-002  +6.3964322209E-002 -4.5637112856E-001 
19256150000.000 -3.3861186355E-002 -7.1428865194E-001  -3.2938787341E-001 +1.8578904867E+000  +1.9471447170E-001 +8.6553193629E-002  +5.8345519006E-002 -4.5495891571E-001 
19506100000.000 -4.5577287674E-002 -7.0896965265E-001  -3.0032402277E-001 +1.8429955244E+000  +1.9762262702E-001 +8.4053814411E-002  +5.1719535142E-002 -4.5305323601E-001 
19756050000.000 -5.8775294572E-002 -7.0297724009E-001  -2.6698800921E-001 +1.8345956802E+000  +1.9901296496E-001 +8.1097103655E-002  +4.8276197165E-002 -4.5201474428E-001 
20006000000.000 -6.0635060072E-002 -7.0153695345E-001  -2.5172206759E-001 +1.8213518858E+000  +2.0048144460E-001 +8.1307545304E-002  +4.2678069323E-002 -4.5159208775E-001 
20255950000.000 -6.8459674716E-002 -6.9626599550E-001  -2.3225735128E-001 +1.8043570518E+000  +2.0109726489E-001 +7.7619642019E-002  +3.6939226091E-002 -4.4732457399E-001 
20505900000.000 -7.8443869948E-002 -6.8829077482E-001  -2.0813921094E-001 +1.7912906408E+000  +2.0203860104E-001 +7.7231004834E-002  +3.2547764480E-002 -4.4702449441E-001 
20755850000.000 -8.4761388600E-002 -6.8766987324E-001  -1.8853119016E-001 +1.7779065371E+000  +2.0440000296E-001 +7.6125688851E-002  +3.1203588471E-002 -4.4576117396E-001 
21005800000.000 -9.0504370630E-002 -6.8192231655E-001  -1.7191047966E-001 +1.7689267397E+000  +2.0442596078E-001 +7.4755646288E-002  +2.4463994429E-002 -4.4730198383E-001 
21255750000.000 -1.0161781311E-001 -6.7558968067E-001  -1.4807964861E-001 +1.7536433935E+000  +2.0661345124E-001 +7.3011443019E-002  +1.9944969565E-002 -4.4111436605E-001 
21505700000.000 -1.0699010640E-001 -6.7835813761E-001  -1.3336770236E-001 +1.7428048849E+000  +2.0688617229E-001 +7.0377826691E-002  +1.5619466081E-002 -4.4028705359E-001 
21755650000.000 -1.1425241083E-001 -6.7077648640E-001  -1.1499967426E-001 +1.7292839289E+000  +2.0713697374E-001 +6.9385744631E-002  +1.4307514764E-002 -4.3891611695E-001 
22005600000.000 -1.1845973134E-001 -6.6789704561E-001  -9.7655668855E-002 +1.7174574137E+000  +2.0994488895E-001 +6.7326709628E-002  +7.9228207469E-003 -4.3994313478E-001 
22255550000.000 -1.2674950063E-001 -6.6317456961E-001  -8.2708410919E-002 +1.7046593428E+000  +2.1058163047E-001 +6.6701605916E-002  +5.1363687962E-003 -4.3733817339E-001 
22505500000.000 -1.3072581589E-001 -6.5792012215E-001  -5.8796562254E-002 +1.6904156208E+000  +2.1219797432E-001 +6.4986377954E-002  -1.4109945914E-004 -4.3633192778E-001 
22755450000.000 -1.3817261159E-001 -6.5454632044E-001  -4.3491266668E-002 +1.6794624329E+000  +2.1084976196E-001 +6.2735855579E-002  -4.0544681251E-003 -4.3470224738E-001 
23005400000.000 -1.4167171717E-001 -6.4859044552E-001  -2.5856496766E-002 +1.6638563871E+000  +2.1217732131E-001 +5.8611389250E-002  -8.8643627241E-003 -4.3078136444E-001 
23255350000.000 -1.4740313590E-001 -6.4363020658E-001  -1.2433102354E-002 +1.6473056078E+000  +2.1165610850E-001 +5.8646745980E-002  -9.2605659738E-003 -4.2920565605E-001 
23505300000.000 -1.5489251912E-001 -6.4209568501E-001  +5.1144342870E-003 +1.6353815794E+000  +2.1094106138E-001 +5.6072741747E-002  -1.2683545239E-002 -4.2429754138E-001 
23755250000.000 -1.5771265328E-001 -6.3677674532E-001  +1.6547489911E-002 +1.6223889589E+000  +2.1265560389E-001 +5.6431610137E-002  -1.2821332552E-002 -4.2629998922E-001 
24005200000.000 -1.6210430861E-001 -6.3258808851E-001  +2.8347406536E-002 +1.6075501442E+000  +2.1337150037E-001 +5.5456083268E-002  -1.5001293272E-002 -4.2422762513E-001 
24255150000.000 -1.6815958917E-001 -6.2912571430E-001  +4.1932955384E-002 +1.5939165354E+000  +2.1396204829E-001 +5.2592743188E-002  -1.7050987110E-002 -4.2171496153E-001 
24505100000.000 -1.7230774462E-001 -6.2823742628E-001  +4.9930665642E-002 +1.5845327377E+000  +2.1287961304E-001 +5.3347367793E-002  -2.0262012258E-002 -4.2087975144E-001 
24755050000.000 -1.7563576996E-001 -6.2520921230E-001  +5.7734280825E-002 +1.5747338533E+000  +2.1238929033E-001 +5.3394839168E-002  -2.0692551509E-002 -4.2049214244E-001 
25005000000.000 -1.7921026051E-001 -6.2253957987E-001  +6.8310461938E-002 +1.5615401268E+000  +2.1351511776E-001 +5.3121306002E-002  -2.4426871911E-002 -4.2100974917E-001 
25254950000.000 -1.8330575526E-001 -6.2027657032E-001  +7.6545618474E-002 +1.5531500578E+000  +2.1459656954E-001 +5.1949743181E-002  -2.7985943481E-002 -4.2204046249E-001 
25504900000.000 -1.9104367495E-001 -6.1850893497E-001  +8.6840942502E-002 +1.5457997322E+000  +2.1485646069E-001 +5.2902303636E-002  -2.9468946159E-002 -4.2149904370E-001 
25754850000.000 -1.9546878338E-001 -6.1683541536E-001  +9.7660951316E-002 +1.5386428833E+000  +2.1502444148E-001 +5.2564896643E-002  -3.3195279539E-002 -4.2055323720E-001 
26004800000.000 -2.0272949338E-001 -6.1652475595E-001  +1.1052609980E-001 +1.5358122587E+000  +2.1656507254E-001 +5.1402449608E-002  -3.6831256002E-002 -4.2245718837E-001 
26254750000.000 -2.1007901430E-001 -6.1399912834E-001  +1.2373599410E-001 +1.5290076733E+000  +2.1859504282E-001 +5.0606414676E-002  -3.9173107594E-002 -4.2338529229E-001 
26504700000.000 -2.1360644698E-001 -6.1231511831E-001  +1.4119696617E-001 +1.5236796141E+000  +2.1922068298E-001 +4.6608764678E-002  -4.7171540558E-002 -4.2398610711E-001 
26754650000.000 -2.2066301107E-001 -6.1024045944E-001  +1.4879159629E-001 +1.5122728348E+000  +2.2165448964E-001 +4.6278055757E-002  -5.1998477429E-002 -4.2242461443E-001 
27004600000.000 -2.2470986843E-001 -6.0859227180E-001  +1.6344258189E-001 +1.5086351633E+000  +2.2424206138E-001 +4.7003116459E-002  -5.5106818676E-002 -4.2223286629E-001 
27254550000.000 -2.3698104918E-001 -6.0407191515E-001  +1.7578543723E-001 +1.4965043068E+000  +2.1890440583E-001 +4.6800006181E-002  -5.0418917090E-002 -4.1921678185E-001 
27504500000.000 -2.3715503514E-001 -6.0456633568E-001  +1.9180719554E-001 +1.4910970926E+000  +2.2418071330E-001 +4.6245563775E-002  -5.5761590600E-002 -4.2028713226E-001 
27754450000.000 -2.4380540848E-001 -5.9831863642E-001  +2.0163464546E-001 +1.4782056808E+000  +2.2717171907E-001 +4.1280783713E-002  -6.2793053687E-002 -4.2109769583E-001 
28004400000.000 -2.4844969809E-001 -5.9296208620E-001  +2.1700300276E-001 +1.4652861357E+000  +2.2414658964E-001 +4.3085183948E-002  -6.6184714437E-002 -4.1664212942E-001 
28254350000.000 -2.5967386365E-001 -5.8824247122E-001  +2.3566348851E-001 +1.4583473206E+000  +2.2532211244E-001 +4.2963683605E-002  -6.9697223604E-002 -4.1607922316E-001 
