
! Date created: 9/30/2014 6:22:08 PM
! S2P parameters 

!-------------------------------------------------------------------------
!	freq-unit	param-type	data-format	keyword		impedance-ohms
#	GHZ		S		RI		R		50
!-------------------------------------------------------------------------

! -- Signals parameters
0.01  1.001535598788835 -0.0027980560172636217 -3.2299868487840055 -0.02000415196165661 -0.0030495272255939266 -0.00018981442623609268 0.61420683061852788 0.049673105157879247 
0.25995  0.99524976998197334 -0.028543823687954925 -3.1500799486730893 0.079706189182624593 0.0013629237392181106 0.0066246524196529417 0.62304894448488413 -0.016731509986277746 
0.5099  1.0030210042221968 -0.050511778009099381 -3.1383424155274562 0.14914561917606831 -0.00024890933696610466 0.0094143825657762338 0.62785496457627255 -0.029990834231310892 
0.75985  0.9949209551195296 -0.074326199605096288 -3.1402750907969716 0.20201526030670122 0.0008060818761039505 0.015250366787720428 0.6222380356555457 -0.042276661017485347 
1.0098  0.99110593757378318 -0.096824076488875421 -3.1260211246999665 0.26624632174873947 0.0013397691221565331 0.018086226508610827 0.62050334693808551 -0.057612447267489354 
1.2597500000000001  0.98872320524539159 -0.12095622063818916 -3.1154615751312069 0.33068874208548771 0.001907768132230946 0.021370117430386228 0.61926332057689837 -0.06884344135716948 
1.5097  0.9833987099871544 -0.14489899561317149 -3.0929292021373231 0.39918945094854175 0.003339003477989298 0.025804093845187344 0.61542007581229974 -0.081400278698063211 
1.7596500000000002  0.98147875686850639 -0.16710342322004665 -3.0870732723564389 0.45012020834185079 0.00340524117040572 0.029726845470483914 0.61313198608469122 -0.091436721730567549 
2.0096000000000003  0.97057422092981627 -0.19333556858152942 -3.059580593661976 0.51942747458869831 0.0053720796840360553 0.035083266696688174 0.60998428310370234 -0.10813373489672382 
2.25955  0.96669269939597646 -0.21481191189019477 -3.0449537543865226 0.57939241765850458 0.0051902072840616592 0.039560923565378013 0.606038069530904 -0.12040516659220458 
2.5095  0.96095522544910517 -0.23695309701965367 -3.0280927817650216 0.62362565462539521 0.0066830950774997462 0.042528483372978619 0.60209770576958455 -0.12933036915601936 
2.75945  0.95059625847720108 -0.25909834065123255 -3.0101255858838094 0.68724509380711563 0.0099815919715050376 0.046145492282709491 0.601034649937287 -0.14255042427668 
3.0094000000000003  0.94562391357894482 -0.28213277162056921 -2.9885696647328763 0.741814062531208 0.010864102931325384 0.050145764775375939 0.595969796324858 -0.15532649829913436 
3.2593500000000004  0.934558942998779 -0.30029766174009781 -2.9629496108013518 0.7956621544255108 0.013422159091749914 0.054550772565777506 0.58941773042597 -0.16805065578119108 
3.5093  0.92600574057953522 -0.3225733117768893 -2.9344868204419292 0.85384549750981265 0.013821738731968743 0.057846452223805127 0.58441125871363431 -0.17860708496316982 
3.75925  0.915723933930609 -0.34360522264965454 -2.9151069205015157 0.90658103376632893 0.0164853500524503 0.060654787859847875 0.58034079030254615 -0.19033006894497953 
4.0092  0.90633616351763857 -0.3642073713568833 -2.8812885242875947 0.97038714010879312 0.017896435741033469 0.065462312345647089 0.57504934255611417 -0.20153453104655802 
4.25915  0.89436520520714913 -0.38522018387332441 -2.8579883107994006 1.017117219058691 0.021869675486349192 0.069522319386974382 0.56900807357573635 -0.214890629500252 
4.5091  0.88091921928046713 -0.40231372028129375 -2.8249195642044671 1.0681167435113914 0.02410971119561536 0.0718401540354243 0.56349236014800075 -0.22346867291043551 
4.75905  0.8705847130700608 -0.41913874541975676 -2.801397007621159 1.1032621983294222 0.026231267162870386 0.075714789287190984 0.556326474155945 -0.23415463640253187 
5.009  0.85860075299160454 -0.43828706742262535 -2.7612076163645218 1.1531742264418385 0.028637094209834096 0.077986842748616572 0.55059974799009048 -0.24355711228770707 
5.2589500000000005  0.84722347078804028 -0.45718210793806374 -2.729820713601844 1.2005167456306105 0.030675519676874291 0.081282888543965814 0.5449368058029016 -0.2547462445482821 
5.5089000000000006  0.83360612389337851 -0.47425460730455665 -2.7003961305646462 1.2547886474072398 0.034212527111266461 0.083455170158724251 0.53652467352234656 -0.26383177929280521 
5.7588500000000007  0.82170173933999868 -0.49371059622804381 -2.665687032200168 1.2929545129545286 0.036604538123439639 0.087105900671503353 0.5312800132774137 -0.27455377264586323 
6.0088000000000008  0.806323290980233 -0.50844268672710391 -2.619016255568611 1.3422181283195906 0.03897065538556016 0.09024081209354981 0.52239889434470832 -0.285632209844779 
6.25875  0.79428330387721757 -0.52507890687274061 -2.5909212182852959 1.3800466005954688 0.041614596597578518 0.09266570122175613 0.516588075689008 -0.2955301598672882 
6.5087  0.7765744973784543 -0.5399867624396828 -2.5510377189136855 1.4211465138127941 0.044114159656368751 0.094760805301036879 0.50663328227088311 -0.30169729063363893 
6.75865  0.76217117885030894 -0.55151156869250051 -2.5093558140579169 1.4586498948376569 0.047255397443030381 0.0976832991616331 0.50172493368508564 -0.30982330466350322 
7.0086  0.74763049096241541 -0.56810492309250193 -2.471134127438718 1.4906380744528074 0.05154753043476535 0.099569439178415681 0.492943836234898 -0.31691944482197149 
7.2585500000000005  0.73232217470496974 -0.580367944524942 -2.4283143367208573 1.5230860453569779 0.053883775911014127 0.10165549860032949 0.48498404161216035 -0.32657497037050387 
7.5085000000000006  0.715934764286618 -0.59268526428917134 -2.3906916069 1.5647890701172402 0.057733364350475172 0.10387804429864017 0.47680857939494803 -0.33234162627210645 
7.7584500000000007  0.70188646537480726 -0.60614159613627983 -2.3465881314115413 1.5896032317379152 0.059761151220594812 0.10533893804142855 0.4697106007718117 -0.34132951211730173 
8.0084  0.68707787125724606 -0.61876642711580832 -2.3080930697972826 1.6254258940029673 0.06385764341808349 0.10752095079055002 0.4614787417692825 -0.34655390445561951 
8.25835  0.66930982759044322 -0.63061588824746073 -2.2621617216953744 1.6564691554803663 0.06679866070504685 0.1094648760473768 0.45263819121469417 -0.35405091886054796 
8.5083  0.65604618177612384 -0.63852053716711854 -2.2155587592221009 1.6739866315345215 0.069500824427339944 0.1104488066140034 0.44347336177655927 -0.35916151864961188 
8.75825  0.63702480541779061 -0.65056552997582051 -2.1701175198821785 1.708855037069537 0.073174274267899783 0.11257377800526251 0.4367798085190584 -0.36693688413855741 
9.0082  0.62360081309945437 -0.65928163481152791 -2.1312188334803257 1.7267025142024575 0.074892769995548919 0.11348876283916998 0.42762720845888297 -0.37349662920355814 
9.25815  0.6041801416064646 -0.66758991895277109 -2.0788253298654573 1.7543858369377969 0.078742176135885883 0.11510380676178916 0.41686056612061162 -0.37932901045324 
9.5081  0.59015565353841148 -0.67612590812941453 -2.0375999600469976 1.7694078433080844 0.081366377593850209 0.11639553206430914 0.41108572708825986 -0.3846927222235933 
9.75805  0.57665128437509938 -0.68128100923181656 -1.9952490030528836 1.7860970137421723 0.083509192493397444 0.11738698202751977 0.40410642016414239 -0.39072521360235329 
10.008000000000001  0.55943918436313811 -0.69105702620590037 -1.9603609920296643 1.8167652716281237 0.089006988135476736 0.1190201641366241 0.3973555392760692 -0.39548494281916508 
10.257950000000001  0.54195724063344042 -0.69803643750856326 -1.9142856498936376 1.8426320631715123 0.091782512221151441 0.11896092641805059 0.38928910700865071 -0.39911776147065803 
10.507900000000001  0.52795115761612232 -0.70581921584969853 -1.8788258418281458 1.8457515284209003 0.0954641268996594 0.11899200675191487 0.37812707449667077 -0.40338208202018538 
10.757850000000001  0.51118618168912622 -0.71162438068856215 -1.8305738578418558 1.8684858313821844 0.0979785837379533 0.12104864558352608 0.3701314166508009 -0.40947393314307329 
11.007800000000001  0.49630927769602778 -0.71846328449129193 -1.7881788619099332 1.8844457397137986 0.10081470621715773 0.12098823409163467 0.360206615990827 -0.41172334350041728 
11.257750000000001  0.48114211240858146 -0.72209290214529964 -1.7425857067793225 1.900204002460548 0.1033858749955943 0.12155713431747783 0.35411733178944388 -0.41560908882090997 
11.507700000000002  0.46523897782239843 -0.72973959695366308 -1.7101799616590556 1.9118152637673631 0.10769915847199631 0.1218194356438386 0.34413582182635066 -0.41768161660127379 
11.75765  0.44790442140548342 -0.73520342866193567 -1.6678571686810084 1.9259039267381419 0.11049120875658391 0.12200276156848816 0.33772059623809936 -0.42315866998536839 
12.0076  0.4351292157895037 -0.73743987885195827 -1.6216116707197772 1.9346194208817193 0.11314903442492712 0.12329917626290272 0.33054778960099984 -0.427054939609802 
12.25755  0.4201814935200992 -0.742123989948031 -1.5852933406222502 1.9451199829250654 0.11650174782878935 0.12374432013487736 0.32200634756069624 -0.43014453576770095 
12.5075  0.40259317842501624 -0.74481863278928 -1.5394916764189868 1.956798850589238 0.12008983396794008 0.12444674441743471 0.31307609880307752 -0.4339238940166863 
12.75745  0.38989721531221477 -0.74746131383489645 -1.5015092043004206 1.963543441112275 0.12282482140261115 0.12391002964345292 0.303565803478648 -0.43627353714729517 
13.0074  0.37537772337654007 -0.75054861294948283 -1.4596606046961631 1.9735933830324222 0.12641111348176468 0.12312058393851079 0.29734682484487585 -0.43894350822196487 
13.25735  0.35907996293199584 -0.75563371733456985 -1.4143357048130778 1.9781871722327298 0.1282431446934299 0.12336203225805902 0.28721615402840034 -0.44123768142006475 
13.5073  0.34357716164049512 -0.75906584879912176 -1.3835094826171928 1.9933418835263683 0.13184821274353428 0.12198464309289273 0.278617607654604 -0.44307499371439624 
13.75725  0.32816247141967975 -0.7575808451328202 -1.3412783605767049 1.988019338718555 0.13515507627850348 0.12260278865258267 0.27059872559984938 -0.44632348848340953 
14.007200000000001  0.3112819059815839 -0.75957207308271968 -1.2967486067000082 1.9939399933812247 0.13767820346119392 0.12139797230407487 0.26299947835385595 -0.44541728259255625 
14.257150000000001  0.30047736708643541 -0.75637584136788327 -1.2518426489313168 1.9884441882578079 0.14237858564505335 0.11926886244129825 0.25454069978008848 -0.44728652545897413 
14.507100000000001  0.28904950377715227 -0.75870340618130094 -1.2179989280090906 1.9898734051075253 0.14336065766600797 0.12055610387055461 0.24590208842214148 -0.44502708084365034 
14.757050000000001  0.27602911403190339 -0.75787499667567237 -1.1806984856429807 1.9798285456376308 0.14552046355123635 0.11888512433558424 0.24137944610805898 -0.44616676802112026 
15.007000000000001  0.26116764089136241 -0.75639343374543722 -1.14148961477414 1.9784796474540982 0.14756958033972098 0.11735440351987159 0.23313504414612427 -0.44638828239997824 
15.256950000000002  0.25179166781084428 -0.7582804907947428 -1.1137357801247723 1.974240857525196 0.14897743897686946 0.11737784854799545 0.22909056290451107 -0.44741140948213354 
15.506900000000002  0.23764618754544894 -0.75845316767448245 -1.0780592336450661 1.9751577085543821 0.15062759981032475 0.1161367444704508 0.22136977744316336 -0.4474230099224305 
15.756850000000002  0.22436009602014659 -0.75731455938835435 -1.0440431876300222 1.9667078551141195 0.15383190636144367 0.11552938974935399 0.21463033917942625 -0.44917985128624721 
16.006800000000002  0.2112697096590449 -0.75607184210853273 -1.0046131481658962 1.9632872107877213 0.15479720826749627 0.11426624290092045 0.20867148711056721 -0.44810583524108943 
16.25675  0.20506503790712083 -0.75531496830717837 -0.98368632330017147 1.9557036798424836 0.15655699287033281 0.11269882764865195 0.20217622659741338 -0.44822623157071945 
16.506700000000002  0.19177716784025162 -0.75352800551184052 -0.94533200763864789 1.9492420055312372 0.15868636283474763 0.11210976702572138 0.19678204556718451 -0.44988347278277879 
16.75665  0.17879364320849098 -0.7540694024259792 -0.9181386035539173 1.9436582789132486 0.15984094585071998 0.11198146100981948 0.19318478257967464 -0.4505660210403426 
17.006600000000002  0.17047936200750274 -0.75429116327624068 -0.89356827509078951 1.9393997629524184 0.16157950658044873 0.11091242596579937 0.18680763119696811 -0.44993441470871565 
17.25655  0.15943499158071814 -0.75219031508133627 -0.86123521088764687 1.9366409703345417 0.16327584478936841 0.110453952489985 0.17918469828237479 -0.45141430791683695 
17.506500000000003  0.14714006833290888 -0.749413998441053 -0.83366943229187784 1.924157301156334 0.16522960810380605 0.10933960699482358 0.17514962533017231 -0.45031163485957248 
17.75645  0.1387441215177013 -0.74825061481142319 -0.80794176042795385 1.9192264716820693 0.16809285163384186 0.10804021362440197 0.16827476375228331 -0.45014588475298117 
18.006400000000003  0.12708277598538226 -0.74648758609294352 -0.77660050191204377 1.9178784050083508 0.16924759839743792 0.10748442806540608 0.15923586202713474 -0.44972220522461592 
18.25635  0.11817774700545591 -0.74620605943040552 -0.75694803159772639 1.9070069253475654 0.1708177047181314 0.10790683090718896 0.156729060229688 -0.4500697043842094 
18.5063  0.10814910166907096 -0.74230520044650483 -0.727995620081531 1.896581350335417 0.17268947934001017 0.1069411217605423 0.15028427837911129 -0.44796768947042087 
18.75625  0.10068507498853956 -0.742926694239603 -0.70111128262811218 1.891897920944112 0.17393024372883595 0.10643071339455459 0.14596141026241652 -0.44833159241294407 
19.0062  0.088382674000552885 -0.74069367732197466 -0.67610951605823977 1.8831779837212144 0.17479870602454481 0.10595473588550916 0.1428255194268874 -0.44717457554929346 
19.25615  0.082378570504372486 -0.73863044167144809 -0.66082392467363871 1.8756107240694873 0.1758808260041983 0.10567344094881159 0.1364188866180879 -0.44704625818191457 
19.5061  0.069015788897732036 -0.73476641544695576 -0.62830290332560446 1.8679383748041933 0.17859409637277279 0.10360521938407938 0.1297681056001963 -0.44643038796542756 
19.756050000000002  0.056966622772715123 -0.73307038396824853 -0.60198495202332791 1.8669731797902098 0.1805022277737432 0.1022536569601869 0.12763810694085559 -0.44785873592993664 
20.006  0.052428115347021464 -0.7326441771531238 -0.57930965318862515 1.8607018267972244 0.18152888497958369 0.10274792712798606 0.12140632678077301 -0.45028636287182106 
20.255950000000002  0.043539653487832661 -0.729315758115125 -0.55846528231731118 1.8465426453339515 0.18301015198388193 0.099203949340223557 0.11420682588900503 -0.44564113029502367 
20.5059  0.032732415692266592 -0.72127422139214714 -0.53303571079156264 1.8340998479219139 0.18418301840946108 0.099628132072730857 0.1103140401155661 -0.44637108236764717 
20.755850000000002  0.025947462391706737 -0.72395756860662308 -0.51373918107385153 1.8267593518947982 0.18673615429626189 0.099479426275329977 0.10979632116684383 -0.44537681263190182 
21.0058  0.019084705778003377 -0.71836657895610767 -0.49531577196972337 1.8187992575610494 0.18686467208983015 0.097886889487402345 0.10196709214029115 -0.4475011521177234 
21.255750000000003  0.0062689949230676648 -0.71458393467349146 -0.46695898113736756 1.8102918281591536 0.18923067129518797 0.096589981679056788 0.096440306382632651 -0.44110461831410297 
21.5057  0.001735806500554167 -0.7170002979454887 -0.45249141924754344 1.798413314012467 0.18997922887567087 0.094860634343414837 0.0914138704833973 -0.44206322075935084 
21.755650000000003  -0.0068036309325155263 -0.71129784741370772 -0.4342709350244926 1.7885223211995041 0.19042996597576969 0.094544525914772443 0.091260224101740048 -0.44168373603491723 
22.0056  -0.012296193672131042 -0.70910766538599312 -0.41293692351654854 1.7819100335886624 0.19400983919505313 0.092814650204499818 0.084176752993773044 -0.44311717937331979 
22.255550000000003  -0.019495010383510449 -0.70518731606451068 -0.39648231405471568 1.7702295766365683 0.1937499389709916 0.092042101430846152 0.080991090103410032 -0.44074800114987195 
22.5055  -0.02545329993564354 -0.70091202894830062 -0.36872457756518756 1.757914782288563 0.19588535002812152 0.0914525428666156 0.0742123181647569 -0.4403103690407974 
22.75545  -0.033157827613080136 -0.70009778476512241 -0.35328884421849344 1.7504635270238793 0.19475439965711488 0.089412719240242508 0.071531634593149762 -0.44029248549038458 
23.0054  -0.038153348089932551 -0.69523884424045135 -0.33364539936247972 1.7417430062566361 0.19634342049023717 0.085701911402877348 0.066825137713107288 -0.43753670008042866 
23.25535  -0.044689713075911276 -0.69061454306939607 -0.31898795931131235 1.7226025708240436 0.19652269179614756 0.086241777024855693 0.064651510501428047 -0.43631401959227256 
23.505300000000002  -0.05266763952587681 -0.69128977074909637 -0.29819598451470386 1.7140446194615178 0.19619472211062003 0.084007541979028835 0.061055361213370268 -0.4325474794331895 
23.75525  -0.056586905777919784 -0.68569683211406818 -0.284649733088341 1.7045537312491936 0.19806106729443387 0.084103417640651018 0.060430885806648953 -0.43389984768247436 
24.005200000000002  -0.062146085274694458 -0.682940533683755 -0.2727921647567505 1.69126043642187 0.19889811331383439 0.0840005113074163 0.058301620022995868 -0.43196892299770806 
24.25515  -0.0700256886808323 -0.68102373888285017 -0.25722519956004519 1.6805592888721863 0.20021442922579505 0.08127134808141942 0.054511139835425562 -0.43066814704130235 
24.505100000000002  -0.073587569507102324 -0.67985169307326443 -0.24477299038501787 1.6720734892974316 0.19864800834698526 0.082003765416787749 0.0509118879379745 -0.43040377592160511 
24.75505  -0.078598732227573825 -0.67559085146344544 -0.23452945758988836 1.6593316574597907 0.1983737275652159 0.082094833460317165 0.050287655065728368 -0.4285835615746047 
25.005000000000003  -0.082531779697920638 -0.67274013897756457 -0.22310781477295086 1.647303382185759 0.19939600382512415 0.081724799151259561 0.045946833182701541 -0.4291025699916331 
25.25495  -0.0866331734267835 -0.67111951911776557 -0.21305849731425286 1.6367517914015717 0.19993664696362093 0.080745710522760014 0.042864895779156795 -0.42925676075598956 
25.504900000000003  -0.095571228387382537 -0.66914213079589591 -0.20286621700652888 1.6316129610426631 0.2002209896464866 0.0823402451985456 0.041359646229811704 -0.4295438112992091 
25.75485  -0.099490171250755266 -0.6664232019706533 -0.19076649515531507 1.6217229675062006 0.19983640142673248 0.081479963979869036 0.037466178660133263 -0.42708898953762148 
26.004800000000003  -0.1081435481443902 -0.66637177591611463 -0.17644379094236015 1.6229292744247183 0.20206928841192467 0.080581070400893851 0.034192591732247764 -0.42958474887955483 
26.25475  -0.11418115047501848 -0.66585151367687068 -0.16810189550815338 1.6176235448671845 0.20403782689206354 0.0808327877626824 0.032539487615202631 -0.430150479113326 
26.504700000000003  -0.11803615188320377 -0.66153833076773882 -0.14912724307503469 1.6132490470630778 0.2039130392110598 0.076924240325786611 0.025456913564204098 -0.43037436422664865 
26.75465  -0.12406736332600753 -0.66043298791042671 -0.13817045118915156 1.6025299638849126 0.20700264630750534 0.0767356043335429 0.020312025221415703 -0.42888131616634739 
27.0046  -0.1301221439556777 -0.65853984640588292 -0.1232153744827566 1.6000376243539898 0.20937461232618695 0.07886862860133477 0.015457319561049378 -0.42854818225801194 
27.254550000000002  -0.13979491085360685 -0.65879817034328569 -0.11054498700054648 1.5915238039455717 0.20388924676330059 0.078370212966529934 0.022233911241847714 -0.42750554017858078 
27.5045  -0.13971250768344382 -0.6577940887829945 -0.093141844076167948 1.5853514885845943 0.20869205565856006 0.079480390506176474 0.016427758389846763 -0.4290252263091941 
