# Hz S RI R 50
10000000	1.00151678714453	-0.00280824089610729	-3.23835921699791	-0.0255857896919166	-0.00305198008189456	-0.000190742948430239	0.613133671957278	0.0491892722529325
259950000	0.995238445086132	-0.0285227124156139	-3.1482499630444	0.0789326733470511	0.00136125584830284	0.00662686406746435	0.623250242365768	-0.0167983869869368
509900000	1.00309910766556	-0.0504950763791962	-3.13786443923128	0.149120689896041	-0.000240299222882826	0.00941803543974927	0.627945921058764	-0.0299752525072169
759850000	0.994928866453171	-0.0743059255183429	-3.13845562510167	0.205068375837947	0.000806657407786909	0.01525566213482	0.622507028726755	-0.04188033312883
1009800000	0.991132083675577	-0.0968905815015774	-3.12709890442427	0.269105911125611	0.00134514514241256	0.0180831740907273	0.620433924109713	-0.0573194284401902
1259750000	0.988708986693992	-0.120977551598103	-3.11625852227562	0.336561780499108	0.00190806974623446	0.0213769317002572	0.619227184119467	-0.0682061351738606
1509700000	0.983481914334253	-0.144915488809632	-3.09272601675777	0.403830173756452	0.00335137346368044	0.0258166830250001	0.615499252891199	-0.0808785918276077
1759650000	0.981630916327914	-0.167131994426556	-3.08641941580136	0.455668306203959	0.00342697742149592	0.0297519142598893	0.613354800873732	-0.0908065212758223
2009600000	0.970707658160575	-0.193542599959119	-3.05987307111813	0.525984906954357	0.00539994585851685	0.0350999959468914	0.610144143578748	-0.107405564140634
2259550000	0.96686303183257	-0.21494455706674	-3.04495328623694	0.587745164823915	0.00521830418456547	0.0396064587084216	0.606278299523012	-0.119449369430565
2509500000	0.961035421296188	-0.237238099273878	-3.02955057158953	0.63248472170012	0.00671606722837976	0.0425742905308583	0.602313650392576	-0.128484257289796
2759450000	0.95058821349976	-0.259534984619942	-3.01314633949528	0.698195594995758	0.0100325573242118	0.0461844473092429	0.600970300895074	-0.141755015624439
3009400000	0.945803775024806	-0.282821100201688	-2.99214703785631	0.753257316540286	0.0109570415876949	0.050206748592995	0.596000583587057	-0.154550565129829
3259350000	0.934729429516217	-0.300791106377399	-2.96399938599485	0.808787390408436	0.0134952775835259	0.0546576023726988	0.589670984269072	-0.166826976363508
3509300000	0.925868670894389	-0.323292928459215	-2.93656526127305	0.869582486345403	0.0139167444139072	0.0579388458020063	0.584465900673071	-0.177513313392526
3759250000	0.915834471689361	-0.34472193273898	-2.92009029835733	0.92155355691999	0.0166429653400966	0.0607761080969138	0.58036658101365	-0.189558127148141
4009200000	0.906483863161945	-0.365408579476833	-2.88510519557713	0.987963840486824	0.0180895895860418	0.0656125863465288	0.574943473137017	-0.20053592897561
4259150000	0.894404852948516	-0.386521818124191	-2.8612639128648	1.03530821450878	0.0220887591037495	0.0697005790790147	0.569003812917729	-0.213946902227251
4509100000	0.880846879333377	-0.403819791781314	-2.82860285945221	1.08864454413346	0.0243371357401507	0.072050640344366	0.563445643781302	-0.222264916133148
4759050000	0.87017516669906	-0.420904609836156	-2.80457921679543	1.12682366840687	0.0265110001194966	0.0759072021611696	0.556001545558188	-0.232920433072158
5009000000	0.858154728754399	-0.440163969415883	-2.76486952884194	1.17865221359124	0.028972196199993	0.0782570228074339	0.550278286524926	-0.242484037872187
5258950000	0.846536761808761	-0.459799385806346	-2.73583353108217	1.22826624547992	0.0310992000975018	0.0815306445605223	0.54429574483806	-0.253839997067365
5508900000	0.832952406089197	-0.477052443887159	-2.7062323789474	1.28237224222032	0.0347372438767301	0.0837587442543799	0.535981970591484	-0.263307670132656
5758850000	0.820238414135683	-0.496721210009321	-2.66987765480962	1.32439893492838	0.0371574593432119	0.0873409880293801	0.530322109128411	-0.273823664869624
6008800000	0.805008500506117	-0.511420596158782	-2.62222262455599	1.3752399949839	0.0395413319104116	0.0906220430854833	0.52161710615405	-0.28457010323219
6258750000	0.792540722703707	-0.528619937932189	-2.59444689277315	1.41645917991366	0.0423355524911169	0.0930295513241513	0.515325252158247	-0.294687360422284
6508700000	0.774124567997946	-0.543590732762767	-2.55359837026861	1.46017363356173	0.0448329836473245	0.0951065728988802	0.505186780203396	-0.300678786221492
6758650000	0.759021541152947	-0.555702760146345	-2.5124250518128	1.50224898243956	0.0480850458071192	0.0979517696329927	0.499456337068479	-0.30876772634433
7008600000	0.744131847927405	-0.572944381716517	-2.47499940969183	1.53515550465895	0.0525918093081537	0.0998478449298794	0.490619011063888	-0.316416769640306
7258550000	0.72831618822872	-0.585155254328244	-2.42987088650436	1.57022522391293	0.0549505736832385	0.101978079466529	0.482471817254467	-0.325699794184625
7508500000	0.711883343075851	-0.598095948836153	-2.39210796589992	1.61159812182505	0.059095607979681	0.1042526159382	0.474389460949525	-0.332155345520862
7758450000	0.696435561553224	-0.611758242373027	-2.3469491481935	1.64226966443592	0.0610966789161017	0.105519166028347	0.466169217283551	-0.340514770322382
8008400000	0.680956051478767	-0.624563230426448	-2.30707539116939	1.68000596287265	0.0653025182576978	0.107706603111261	0.457820895093009	-0.345805008283275
8258350000	0.662690181420035	-0.635490702314371	-2.25586781767052	1.7118262077849	0.0682301257470607	0.109719598137678	0.448986907037169	-0.35282417424109
8508300000	0.648266495957673	-0.644217998635891	-2.21065638391343	1.7341127872788	0.0711136261287427	0.110546419770032	0.438851740873194	-0.358052188081938
8758250000	0.628280114620286	-0.656355491092232	-2.16299176375685	1.77063364245051	0.0748676556774178	0.112605872426166	0.431924009941887	-0.365642887378357
9008200000	0.614677614308658	-0.664545019090491	-2.12155774444231	1.78852895478861	0.0766382461332562	0.113618081671911	0.422795578875384	-0.372150551393727
9258150000	0.595496072761655	-0.673140494671559	-2.0683851278027	1.81462404501261	0.0806775528500989	0.115394573906585	0.412351573730075	-0.378078327068979
9508100000	0.579962708089729	-0.681751603845118	-2.02623170586698	1.83444462677549	0.0834010842161623	0.116493498424047	0.40543912913312	-0.383411428957679
9758050000	0.565460799533921	-0.687486385855058	-1.98318895348386	1.85554435596314	0.0856612369877153	0.117398023080851	0.397632534426809	-0.389102271560856
10008000000	0.547446132287835	-0.696843547263598	-1.94404808610377	1.88701995884498	0.0914630845399121	0.118986428269689	0.390564011914444	-0.394117093741284
10257950000	0.529583225432378	-0.703671732392415	-1.89638708600483	1.91172055337454	0.094225258691489	0.118973619916711	0.382766023462015	-0.397452995861591
10507900000	0.514561314006398	-0.711228291780969	-1.85966966092267	1.91861755734402	0.0980673725400672	0.118858240716011	0.370412079535137	-0.401689817566205
10757850000	0.497138699655938	-0.717358175681938	-1.80908893429156	1.9415569665987	0.100806389077645	0.120924466097459	0.362424519047444	-0.407545644038469
11007800000	0.481035523906965	-0.724401230609352	-1.76662916321603	1.96077770495055	0.103819811447385	0.120843372956302	0.35189124350701	-0.410104808176321
11257750000	0.464971879273849	-0.728308714832939	-1.71902352656866	1.97803928094148	0.106526889503655	0.1212950526469	0.345293546972436	-0.413577820280122
11507700000	0.448252540527244	-0.735479043795912	-1.68378635436763	1.98952440525875	0.11100967431425	0.121464839766438	0.335121072264947	-0.415479805632387
11757650000	0.42941477806658	-0.740890042363669	-1.63849269938124	2.00780991090439	0.114009582141726	0.121328657535848	0.327097451874687	-0.4204842002683
12007600000	0.415554150941623	-0.743001697047028	-1.59053468010533	2.01682319907067	0.116828465097348	0.122515116508732	0.319730179531384	-0.424313272155882
12257550000	0.399272056920848	-0.747233775746197	-1.55075341358599	2.0304121272693	0.120464737345618	0.122730125173977	0.309967703799879	-0.427326114460281
12507500000	0.380582686690999	-0.749354534910147	-1.50143270944362	2.04313175881159	0.124138943015453	0.123185926919496	0.3001737529739	-0.430483118612233
12757450000	0.366357586995742	-0.751418589758965	-1.45984737515422	2.05136746141961	0.127016698586802	0.122359568534079	0.290077419458607	-0.432210163744606
13007400000	0.350575096943061	-0.753617999839784	-1.41412436575827	2.06155342428669	0.130571969432704	0.121307426376036	0.283287610007809	-0.434073275958131
13257350000	0.333143523414689	-0.757814998643706	-1.36481083006968	2.06677538223407	0.132399240192057	0.121385544374185	0.272686134490388	-0.435418817864793
13507300000	0.316489116096918	-0.76065780080343	-1.33148816698305	2.08332787331502	0.136063762844225	0.119904097941078	0.263700529943573	-0.436991990870524
13757250000	0.300369884240965	-0.757692251549912	-1.28490991230838	2.0771513996836	0.139375371132401	0.120177050627643	0.254734916017751	-0.439275412235778
14007200000	0.282439086902343	-0.758935606093756	-1.23632796992162	2.0816322198259	0.142058651481736	0.118877778053422	0.247414439667355	-0.437612463633029
14257150000	0.270426944208215	-0.754002021818631	-1.18791518403518	2.07542157290706	0.146434988768888	0.116228698589458	0.238196072520239	-0.438315099932638
14507100000	0.257325292687837	-0.753724520455804	-1.14756050061287	2.0777721357379	0.147098560247627	0.116993312392901	0.228725381535087	-0.434670886371967
14757050000	0.245512220060939	-0.75206187040932	-1.11019914757833	2.06330633464033	0.148908696699307	0.115677535099129	0.225217256322899	-0.4351497880059
15007000000	0.23083360529458	-0.749942562294297	-1.07045794886001	2.06039540672472	0.150786386721255	0.11430274440917	0.217251212252875	-0.434993886271422
15256950000	0.221186208197461	-0.750459850022629	-1.03901170021773	2.0540913165378	0.152100774137395	0.114208583540283	0.21326409043774	-0.435085380637244
15506900000	0.206965115003584	-0.750194661889244	-1.00213820206049	2.05369653785166	0.15389091673953	0.113312575856698	0.206059473387808	-0.435185284005416
15756850000	0.193936739092001	-0.748278019883813	-0.967683913947456	2.04373782477468	0.156943642959783	0.112800916691151	0.199390991787072	-0.436505449038828
16006800000	0.181083600217973	-0.746357963230006	-0.926776186134301	2.03875919060791	0.157805703556296	0.111617898673304	0.193300301044544	-0.434935622445033
16256750000	0.174222390368464	-0.74538306677297	-0.904938783965709	2.03134146144459	0.15965604273154	0.110234892985175	0.187150222433387	-0.434932689177997
16506700000	0.161202032824898	-0.743879750275222	-0.867579285460096	2.02363386006007	0.162292601621526	0.109800780468643	0.181377817674185	-0.437347597283354
16756650000	0.147021796895922	-0.744519207025605	-0.838681708385078	2.01978757531714	0.163791224044476	0.10971480487054	0.177228823727339	-0.438021869323313
17006600000	0.137354723739931	-0.744052136110576	-0.812293129892796	2.01614913826421	0.165645736520736	0.108394769762742	0.170457836067399	-0.437090319344959
17256550000	0.127027514541571	-0.741713619012702	-0.780386183955919	2.01108665132095	0.167466506857766	0.108179923296829	0.162922887923125	-0.438758941177395
17506500000	0.113192348097177	-0.738609953333544	-0.752395143452394	1.99984843488132	0.169928516045851	0.106711073416246	0.157955089759288	-0.438195167913896
17756450000	0.104719839152508	-0.737508328681786	-0.725356082572206	1.99437967865665	0.173044852519419	0.105315832728311	0.150488691637224	-0.437511066220775
18006400000	0.0918628763119109	-0.735034999648274	-0.690696903617485	1.99355653122191	0.174379382030088	0.104737188110109	0.140842012637314	-0.436422199908235
18256350000	0.0814451836391429	-0.734391021127889	-0.670082133451981	1.98431229872527	0.175977579292588	0.104636343327627	0.137318274081878	-0.436162613933596
18506300000	0.0690640083835681	-0.730036703813674	-0.638157497286767	1.97565835066033	0.178388297895688	0.103121639981596	0.129834505000164	-0.433613286724824
18756250000	0.0611078972063608	-0.730225556130523	-0.608131573198279	1.97093598888537	0.17986791832596	0.102709696516608	0.124784883151984	-0.433266232713057
19006200000	0.0472169129444335	-0.726427356214156	-0.581437696015382	1.96305143544624	0.180796173312944	0.101796857721567	0.121030866231534	-0.432056458195681
19256150000	0.0401728447523247	-0.723269043654626	-0.562326629557312	1.9558007963902	0.181735085267404	0.101542695107056	0.11463478159545	-0.430674059653617
19506100000	0.0265955044700574	-0.718840068714091	-0.528969650414509	1.94507401154866	0.184810206917153	0.0993839977928912	0.108056953268248	-0.429620188256507
19756050000	0.0131440784161804	-0.713968581914478	-0.495291019295015	1.94196016779402	0.186066256249325	0.0969576297278117	0.104856103933376	-0.428519650879021
20006000000	0.00985861734008061	-0.713457993161824	-0.47359118534498	1.93243386272935	0.187301078268794	0.0978378195448018	0.0989893214010017	-0.431006774039804
20255950000	0.000668543523588331	-0.708701327513128	-0.452006415824685	1.91617414396887	0.188446930595433	0.0943465284603156	0.0924744182711042	-0.425810276906539
20505900000	-0.0113082408834064	-0.699396850882712	-0.424312121441553	1.90454755481459	0.190085714625438	0.0942576697427608	0.0873477170660693	-0.426397856051962
20755850000	-0.0180538260646297	-0.700199164698546	-0.403005728708103	1.89488244190534	0.192456538398228	0.0936914407579971	0.0862435462879269	-0.424849054754378
21005800000	-0.0250605816615167	-0.694330492103537	-0.383588969082606	1.88548989631366	0.192695034847148	0.0922525722016479	0.078567876821317	-0.426278114809739
21255750000	-0.0378614045779484	-0.689081746967527	-0.355054723180798	1.87484881998598	0.195134024225043	0.0910997587107005	0.0737641198661937	-0.42044200466727
21505700000	-0.0436516755239112	-0.691367971166103	-0.338424088141731	1.86284328953116	0.195857037804462	0.0888135787679078	0.0679758285450979	-0.419576608699779
21755650000	-0.0525290986937705	-0.683501584876024	-0.317975864408272	1.85174640131038	0.196074664595666	0.0881916758574838	0.0673748655689966	-0.418713807667292
22005600000	-0.0573969851313598	-0.681134898825007	-0.298027191397311	1.84283174917081	0.199439362258293	0.0864376843865427	0.0603562816525781	-0.419860334668061
22255550000	-0.0654161135875078	-0.677061509647873	-0.280686289700311	1.83140114576217	0.199688138176005	0.0857815267643354	0.0568394985826896	-0.417575598277642
22505500000	-0.071760802662995	-0.672142983823355	-0.252111251073363	1.81802206293214	0.201876581888857	0.0851074230676286	0.0496858078340943	-0.41646501484962
22755450000	-0.0798816564697135	-0.669184013328585	-0.233547836590608	1.80951543174591	0.200469022321754	0.0827250486301952	0.0463723997488969	-0.415283215686812
23005400000	-0.0840621811249139	-0.663626460036394	-0.214009210422033	1.79761220247747	0.201635691139634	0.0787041071346715	0.0420106724257999	-0.411430294414241
23255350000	-0.0915878914821144	-0.65749250789011	-0.197197893007844	1.77877796545933	0.201955682789122	0.0794767616643503	0.0395988190476459	-0.40984842761867
23505300000	-0.100208029448594	-0.656546804095754	-0.174680130828139	1.76881995019878	0.201369130219189	0.0768207322689164	0.0358407078584328	-0.405138509965747
23755250000	-0.10271564146891	-0.651168899078922	-0.162346893992159	1.75770144580019	0.203261924525389	0.0773900209331742	0.035528015685599	-0.406619789400513
24005200000	-0.109302841374228	-0.646606230223204	-0.147718338656978	1.74338404080698	0.204497833725952	0.0771375621315027	0.0333055253524741	-0.404555222247431
24255150000	-0.116416196465687	-0.642784214772977	-0.130704442183244	1.72920553134651	0.205332410096872	0.0744662124777354	0.0301022855370449	-0.402061217285288
24505100000	-0.120480802485386	-0.642416741135101	-0.119439513874187	1.72091739311412	0.20412402985351	0.0752195728293566	0.0263041998686325	-0.401806488753966
24755050000	-0.12531755624953	-0.638368344184905	-0.110699284540853	1.70900078274843	0.204034203710009	0.0756395089476531	0.0254366978330134	-0.400688173200644
25005000000	-0.129147683307369	-0.635419635625042	-0.097935825284554	1.69602821280148	0.205577787199841	0.0755693781693698	0.0208911266184685	-0.40075014560815
25254950000	-0.134504965444621	-0.633568699738775	-0.0876531456553453	1.68665663597532	0.206641427915688	0.074469466241561	0.0170256443327567	-0.401397384633043
25504900000	-0.142830653757459	-0.631530793564686	-0.077295823969195	1.67994198987024	0.206927868069791	0.0759259946175046	0.0154207561032661	-0.400890252723787
25754850000	-0.148458427361645	-0.62945535148994	-0.0651333444400587	1.67200713611458	0.207321908948792	0.0755913660795211	0.011421231659998	-0.399093808374555
26004800000	-0.155769859390439	-0.628902789082101	-0.0510344413440654	1.67120623027231	0.209345722733773	0.0745010343077908	0.0076492329696918	-0.401197616253659
26254750000	-0.163413718186576	-0.626311137402459	-0.0384787315734061	1.66561392320675	0.211794025853489	0.0742045919462509	0.00487986595701857	-0.401289343564
26504700000	-0.16758344903561	-0.624361173076766	-0.0204600814915753	1.66104235601108	0.212512871622832	0.0699361026407289	-0.00339015305297497	-0.401016822534814
26754650000	-0.174956085147601	-0.62203287427532	-0.00955292289671346	1.65020077795859	0.215769855221068	0.0696405392693422	-0.00864264272129978	-0.399881981094857
27004600000	-0.180310610413098	-0.620895822622197	0.00476986407587837	1.64771756873212	0.218514603372167	0.0720085889597121	-0.0141990225839014	-0.399750769819901
27254550000	-0.192741480388154	-0.617421703524532	0.0219393343262282	1.63783025729346	0.212149354425932	0.0705754787260488	-0.00737116273105469	-0.396901687143777
27504500000	-0.193878756730836	-0.61780648713006	0.0393549855348869	1.6319876387102	0.218283735491077	0.0714198985330135	-0.014402047027956	-0.398911436161136
27754450000	-0.198754624041281	-0.610413221974265	0.048064101640199	1.62601851269498	0.221583393861908	0.0655854923545884	-0.0196452189374859	-0.398769621634332
28004400000	-0.206025992992174	-0.605868583795288	0.0653249341419892	1.6105673450948	0.218332843591101	0.067946505847204	-0.0235511976815526	-0.393350179657729
28254350000	-0.218742492904822	-0.602372184966939	0.0874203021726185	1.60368376093732	0.21971606710036	0.0679927875207637	-0.0292908656895195	-0.391615282349877
28504300000	-0.220081358455224	-0.598966225946726	0.102237541743556	1.5943255340965	0.222248002491349	0.0646970209291017	-0.032131267750727	-0.396255274267359
28754250000	-0.224899907338492	-0.59408042243837	0.117598777255702	1.58677356803055	0.221874119600954	0.06313818813423	-0.0369292153720876	-0.393670288569177
29004200000	-0.234263717124709	-0.588185784713395	0.136201990454447	1.58291782607222	0.222705777797433	0.0629928308742492	-0.0334048167232897	-0.390011303217398
29254150000	-0.23509397285805	-0.583443716395153	0.1400482045534	1.55878545848574	0.22568103602498	0.0623593404561134	-0.0396193839061397	-0.38648797365573
29504100000	-0.237936881403831	-0.575957190515792	0.155131238912996	1.54212846128493	0.225912889855822	0.0628886803976707	-0.0460358684804581	-0.386363233623729
29754050000	-0.254386871151041	-0.576765083128177	0.170818976488032	1.54203465907048	0.229991896950603	0.06116732490829	-0.0468047979394433	-0.385363324699232
30004000000	-0.257456768697065	-0.562528579798775	0.184347543545996	1.51780634283724	0.225991451294358	0.0559951808243419	-0.0485075255673746	-0.377328082035785
30253950000	-0.255242833380415	-0.567454396714703	0.184459937118425	1.52438778447501	0.226926832695912	0.0557135250674302	-0.0467645946132574	-0.383000407096463
30503900000	-0.261507297284628	-0.559743553903018	0.192415902944991	1.50814167408473	0.228882361562032	0.056297836326545	-0.0498066160413532	-0.376895427078205
30753850000	-0.263642019193129	-0.560310491028505	0.200364215910434	1.50216445943945	0.230112769827618	0.0554908291694347	-0.054808701852173	-0.376954796761175
31003800000	-0.268464307308876	-0.553268132885544	0.212273596858922	1.48944183680352	0.23141670107933	0.0536917286136869	-0.0586960222744007	-0.37788274290185
