# Hz S RI R 50
10000000	1.00153559878883	-0.00279805601726355	-3.229986848784	-0.0200041519616571	-0.00304952722559393	-0.000189814426236093	0.614206830618527	0.0496731051578796
259950000	0.995249769981973	-0.0285438236879549	-3.15007994867309	0.0797061891826244	0.00136292373921812	0.00662465241965294	0.623048944484884	-0.0167315099862777
509900000	1.0030210042222	-0.0505117780090994	-3.13834241552746	0.149145619176068	-0.000248909336966099	0.00941438256577623	0.627854964576273	-0.0299908342313109
759850000	0.994920955119529	-0.0743261996050963	-3.14027509079697	0.202015260306701	0.000806081876103972	0.0152503667877204	0.622238035655546	-0.0422766610174854
1009800000	0.991105937573783	-0.0968240764888755	-3.12602112469997	0.26624632174874	0.00133976912215652	0.0180862265086108	0.620503346938085	-0.0576124472674894
1259750000	0.988723205245392	-0.120956220638189	-3.11546157513121	0.330688742085488	0.00190776813223097	0.0213701174303862	0.619263320576899	-0.0688434413571695
1509700000	0.983398709987154	-0.144898995613171	-3.09292920213732	0.399189450948542	0.00333900347798929	0.0258040938451873	0.6154200758123	-0.0814002786980632
1759650000	0.981478756868507	-0.167103423220047	-3.08707327235644	0.450120208341851	0.00340524117040573	0.0297268454704839	0.613131986084691	-0.0914367217305676
2009600000	0.970574220929816	-0.19333556858153	-3.05958059366198	0.519427474588699	0.00537207968403606	0.0350832666966882	0.609984283103702	-0.108133734896724
2259550000	0.966692699395976	-0.214811911890195	-3.04495375438652	0.579392417658504	0.00519020728406164	0.039560923565378	0.606038069530904	-0.120405166592205
2509500000	0.960955225449105	-0.236953097019654	-3.02809278176502	0.623625654625396	0.00668309507749977	0.0425284833729786	0.602097705769584	-0.129330369156019
2759450000	0.950596258477201	-0.259098340651232	-3.01012558588381	0.687245093807115	0.00998159197150503	0.0461454922827095	0.601034649937287	-0.14255042427668
3009400000	0.945623913578945	-0.282132771620569	-2.98856966473288	0.741814062531208	0.0108641029313254	0.050145764775376	0.595969796324858	-0.155326498299134
3259350000	0.934558942998779	-0.300297661740098	-2.96294961080135	0.795662154425511	0.0134221590917499	0.0545507725657775	0.58941773042597	-0.168050655781191
3509300000	0.926005740579535	-0.322573311776889	-2.93448682044193	0.853845497509812	0.0138217387319687	0.0578464522238051	0.584411258713634	-0.17860708496317
3759250000	0.915723933930609	-0.343605222649655	-2.91510692050152	0.906581033766329	0.0164853500524503	0.0606547878598479	0.580340790302546	-0.19033006894498
4009200000	0.906336163517639	-0.364207371356883	-2.8812885242876	0.970387140108793	0.0178964357410335	0.0654623123456471	0.575049342556114	-0.201534531046558
4259150000	0.894365205207149	-0.385220183873324	-2.8579883107994	1.01711721905869	0.0218696754863492	0.0695223193869744	0.569008073575736	-0.214890629500252
4509100000	0.880919219280467	-0.402313720281294	-2.82491956420447	1.06811674351139	0.0241097111956154	0.0718401540354243	0.563492360148	-0.223468672910436
4759050000	0.870584713070061	-0.419138745419757	-2.80139700762116	1.10326219832942	0.0262312671628704	0.075714789287191	0.556326474155945	-0.234154636402532
5009000000	0.858600752991604	-0.438287067422626	-2.76120761636452	1.15317422644184	0.0286370942098341	0.0779868427486165	0.55059974799009	-0.243557112287707
5258950000	0.84722347078804	-0.457182107938064	-2.72982071360184	1.20051674563061	0.0306755196768744	0.0812828885439659	0.544936805802901	-0.254746244548282
5508900000	0.833606123893379	-0.474254607304557	-2.70039613056465	1.25478864740724	0.0342125271112665	0.0834551701587243	0.536524673522347	-0.263831779292805
5758850000	0.821701739339998	-0.493710596228044	-2.66568703220017	1.29295451295453	0.0366045381234397	0.0871059006715034	0.531280013277413	-0.274553772645863
6008800000	0.806323290980233	-0.508442686727104	-2.61901625556861	1.34221812831959	0.0389706553855601	0.0902408120935498	0.522398894344708	-0.285632209844779
6258750000	0.794283303877218	-0.52507890687274	-2.5909212182853	1.38004660059547	0.0416145965975785	0.0926657012217561	0.516588075689008	-0.295530159867288
6508700000	0.776574497378454	-0.539986762439683	-2.55103771891368	1.42114651381279	0.0441141596563688	0.0947608053010369	0.506633282270883	-0.301697290633639
6758650000	0.762171178850309	-0.551511568692501	-2.50935581405792	1.45864989483766	0.0472553974430304	0.0976832991616331	0.501724933685085	-0.309823304663503
7008600000	0.747630490962415	-0.568104923092502	-2.47113412743872	1.49063807445281	0.0515475304347653	0.0995694391784157	0.492943836234898	-0.316919444821972
7258550000	0.73232217470497	-0.580367944524942	-2.42831433672086	1.52308604535698	0.0538837759110141	0.101655498600329	0.484984041612161	-0.326574970370504
7508500000	0.715934764286618	-0.592685264289171	-2.3906916069	1.56478907011724	0.0577333643504751	0.10387804429864	0.476808579394948	-0.332341626272106
7758450000	0.701886465374807	-0.60614159613628	-2.34658813141154	1.58960323173792	0.0597611512205948	0.105338938041429	0.469710600771812	-0.341329512117302
8008400000	0.687077871257246	-0.618766427115809	-2.30809306979728	1.62542589400297	0.0638576434180835	0.10752095079055	0.461478741769282	-0.34655390445562
8258350000	0.669309827590443	-0.630615888247461	-2.26216172169537	1.65646915548037	0.0667986607050468	0.109464876047377	0.452638191214694	-0.354050918860548
8508300000	0.656046181776124	-0.638520537167119	-2.2155587592221	1.67398663153452	0.06950082442734	0.110448806614003	0.443473361776559	-0.359161518649612
8758250000	0.63702480541779	-0.650565529975821	-2.17011751988218	1.70885503706954	0.0731742742678998	0.112573778005262	0.436779808519058	-0.366936884138557
9008200000	0.623600813099454	-0.659281634811528	-2.13121883348033	1.72670251420246	0.0748927699955489	0.11348876283917	0.427627208458883	-0.373496629203558
9258150000	0.604180141606465	-0.667589918952771	-2.07882532986546	1.7543858369378	0.0787421761358859	0.115103806761789	0.416860566120612	-0.37932901045324
9508100000	0.590155653538411	-0.676125908129415	-2.037599960047	1.76940784330808	0.0813663775938502	0.116395532064309	0.41108572708826	-0.384692722223593
9758050000	0.576651284375099	-0.681281009231817	-1.99524900305288	1.78609701374217	0.0835091924933975	0.11738698202752	0.404106420164142	-0.390725213602353
10008000000	0.559439184363138	-0.6910570262059	-1.96036099202967	1.81676527162812	0.0890069881354767	0.119020164136624	0.397355539276069	-0.395484942819165
10257950000	0.541957240633441	-0.698036437508563	-1.91428564989364	1.84263206317151	0.0917825122211514	0.118960926418051	0.389289107008651	-0.399117761470658
10507900000	0.527951157616122	-0.705819215849699	-1.87882584182815	1.8457515284209	0.0954641268996594	0.118992006751915	0.378127074496671	-0.403382082020185
10757850000	0.511186181689126	-0.711624380688562	-1.83057385784185	1.86848583138218	0.0979785837379532	0.121048645583526	0.370131416650801	-0.409473933143073
11007800000	0.496309277696028	-0.718463284491292	-1.78817886190993	1.8844457397138	0.100814706217158	0.120988234091635	0.360206615990827	-0.411723343500417
11257750000	0.481142112408581	-0.7220929021453	-1.74258570677932	1.90020400246055	0.103385874995594	0.121557134317478	0.354117331789444	-0.41560908882091
11507700000	0.465238977822399	-0.729739596953663	-1.71017996165906	1.91181526376736	0.107699158471996	0.121819435643839	0.344135821826351	-0.417681616601274
11757650000	0.447904421405484	-0.735203428661936	-1.66785716868101	1.92590392673814	0.110491208756584	0.122002761568488	0.337720596238099	-0.423158669985368
12007600000	0.435129215789504	-0.737439878851958	-1.62161167071978	1.93461942088172	0.113149034424927	0.123299176262903	0.330547789601	-0.427054939609802
12257550000	0.420181493520099	-0.742123989948031	-1.58529334062225	1.94511998292506	0.116501747828789	0.123744320134877	0.322006347560696	-0.430144535767701
12507500000	0.402593178425016	-0.74481863278928	-1.53949167641899	1.95679885058924	0.12008983396794	0.124446744417435	0.313076098803077	-0.433923894016686
12757450000	0.389897215312215	-0.747461313834896	-1.50150920430042	1.96354344111228	0.122824821402611	0.123910029643453	0.303565803478648	-0.436273537147295
13007400000	0.37537772337654	-0.750548612949483	-1.45966060469616	1.97359338303242	0.126411113481765	0.123120583938511	0.297346824844876	-0.438943508221965
13257350000	0.359079962931996	-0.75563371733457	-1.41433570481308	1.97818717223273	0.12824314469343	0.123362032258059	0.2872161540284	-0.441237681420065
13507300000	0.343577161640495	-0.759065848799122	-1.38350948261719	1.99334188352637	0.131848212743534	0.121984643092893	0.278617607654604	-0.443074993714396
13757250000	0.32816247141968	-0.75758084513282	-1.34127836057671	1.98801933871856	0.135155076278503	0.122602788652583	0.270598725599849	-0.446323488483409
14007200000	0.311281905981584	-0.759572073082719	-1.29674860670001	1.99393999338122	0.137678203461194	0.121397972304075	0.262999478353856	-0.445417282592556
14257150000	0.300477367086435	-0.756375841367883	-1.25184264893132	1.98844418825781	0.142378585645053	0.119268862441298	0.254540699780089	-0.447286525458974
14507100000	0.289049503777152	-0.758703406181301	-1.21799892800909	1.98987340510752	0.143360657666008	0.120556103870555	0.245902088422142	-0.44502708084365
14757050000	0.276029114031903	-0.757874996675673	-1.18069848564298	1.97982854563763	0.145520463551236	0.118885124335584	0.241379446108059	-0.44616676802112
15007000000	0.261167640891363	-0.756393433745437	-1.14148961477414	1.9784796474541	0.147569580339721	0.117354403519872	0.233135044146124	-0.446388282399978
15256950000	0.251791667810844	-0.758280490794743	-1.11373578012477	1.9742408575252	0.148977438976869	0.117377848547995	0.229090562904511	-0.447411409482134
15506900000	0.237646187545449	-0.758453167674482	-1.07805923364507	1.97515770855438	0.150627599810325	0.116136744470451	0.221369777443163	-0.447423009922431
15756850000	0.224360096020146	-0.757314559388353	-1.04404318763002	1.96670785511412	0.153831906361444	0.115529389749354	0.214630339179426	-0.449179851286247
16006800000	0.211269709659045	-0.756071842108532	-1.00461314816589	1.96328721078772	0.154797208267496	0.11426624290092	0.208671487110567	-0.448105835241089
16256750000	0.205065037907121	-0.755314968307179	-0.983686323300171	1.95570367984248	0.156556992870333	0.112698827648652	0.202176226597413	-0.44822623157072
16506700000	0.191777167840252	-0.75352800551184	-0.945332007638648	1.94924200553124	0.158686362834748	0.112109767025721	0.196782045567184	-0.449883472782779
16756650000	0.178793643208491	-0.754069402425979	-0.918138603553917	1.94365827891325	0.15984094585072	0.111981461009819	0.193184782579674	-0.450566021040343
17006600000	0.170479362007503	-0.754291163276241	-0.89356827509079	1.93939976295242	0.161579506580449	0.110912425965799	0.186807631196968	-0.449934414708716
17256550000	0.159434991580718	-0.752190315081336	-0.861235210887647	1.93664097033454	0.163275844789368	0.110453952489985	0.179184698282375	-0.451414307916837
17506500000	0.147140068332909	-0.749413998441053	-0.833669432291879	1.92415730115633	0.165229608103806	0.109339606994824	0.175149625330173	-0.450311634859573
17756450000	0.138744121517701	-0.748250614811423	-0.807941760427953	1.91922647168207	0.168092851633842	0.108040213624402	0.168274763752283	-0.450145884752981
18006400000	0.127082775985382	-0.746487586092943	-0.776600501912043	1.91787840500835	0.169247598397438	0.107484428065406	0.159235862027134	-0.449722205224616
18256350000	0.118177747005456	-0.746206059430406	-0.756948031597726	1.90700692534757	0.170817704718131	0.107906830907189	0.156729060229688	-0.450069704384209
18506300000	0.108149101669071	-0.742305200446505	-0.727995620081531	1.89658135033542	0.17268947934001	0.106941121760542	0.150284278379111	-0.447967689470421
18756250000	0.100685074988539	-0.742926694239603	-0.701111282628112	1.89189792094411	0.173930243728836	0.106430713394555	0.145961410262416	-0.448331592412944
19006200000	0.0883826740005531	-0.740693677321975	-0.676109516058239	1.88317798372121	0.174798706024545	0.105954735885509	0.142825519426887	-0.447174575549294
19256150000	0.0823785705043722	-0.738630441671448	-0.660823924673638	1.87561072406949	0.175880826004198	0.105673440948812	0.136418886618088	-0.447046258181915
19506100000	0.0690157888977323	-0.734766415446956	-0.628302903325605	1.86793837480419	0.178594096372773	0.103605219384079	0.129768105600196	-0.446430387965428
19756050000	0.0569666227727152	-0.733070383968248	-0.601984952023328	1.86697317979021	0.180502227773743	0.102253656960187	0.127638106940856	-0.447858735929936
20006000000	0.0524281153470221	-0.732644177153124	-0.579309653188626	1.86070182679722	0.181528884979584	0.102747927127986	0.121406326780773	-0.450286362871821
20255950000	0.0435396534878326	-0.729315758115125	-0.558465282317311	1.84654264533395	0.183010151983882	0.0992039493402236	0.114206825889005	-0.445641130295024
20505900000	0.0327324156922662	-0.721274221392147	-0.533035710791562	1.83409984792191	0.184183018409461	0.0996281320727308	0.110314040115566	-0.446371082367647
20755850000	0.0259474623917067	-0.723957568606623	-0.513739181073852	1.8267593518948	0.186736154296262	0.0994794262753301	0.109796321166844	-0.445376812631902
21005800000	0.0190847057780031	-0.718366578956108	-0.495315771969723	1.81879925756105	0.18686467208983	0.0978868894874023	0.101967092140291	-0.447501152117723
21255750000	0.00626899492306828	-0.714583934673492	-0.466958981137369	1.81029182815915	0.189230671295188	0.0965899816790569	0.0964403063826328	-0.441104618314103
21505700000	0.0017358065005547	-0.717000297945489	-0.452491419247543	1.79841331401247	0.189979228875671	0.0948606343434148	0.0914138704833973	-0.442063220759351
21755650000	-0.00680363093251534	-0.711297847413708	-0.434270935024493	1.7885223211995	0.19042996597577	0.0945445259147725	0.09126022410174	-0.441683736034917
22005600000	-0.0122961936721307	-0.709107665385993	-0.412936923516549	1.78191003358866	0.194009839195053	0.0928146502044999	0.0841767529937734	-0.44311717937332
22255550000	-0.0194950103835103	-0.70518731606451	-0.396482314054715	1.77022957663657	0.193749938970992	0.0920421014308461	0.0809910901034099	-0.440748001149872
22505500000	-0.0254532999356436	-0.700912028948301	-0.368724577565188	1.75791478228856	0.195885350028121	0.0914525428666156	0.0742123181647567	-0.440310369040798
22755450000	-0.03315782761308	-0.700097784765123	-0.353288844218494	1.75046352702388	0.194754399657115	0.0894127192402425	0.07153163459315	-0.440292485490385
23005400000	-0.0381533480899325	-0.695238844240451	-0.33364539936248	1.74174300625664	0.196343420490237	0.0857019114028774	0.0668251377131074	-0.437536700080429
23255350000	-0.0446897130759115	-0.690614543069396	-0.318987959311312	1.72260257082404	0.196522691796148	0.0862417770248557	0.0646515105014281	-0.436314019592273
23505300000	-0.0526676395258773	-0.691289770749096	-0.298195984514704	1.71404461946152	0.19619472211062	0.0840075419790288	0.0610553612133704	-0.432547479433189
23755250000	-0.0565869057779198	-0.685696832114068	-0.284649733088341	1.70455373124919	0.198061067294434	0.084103417640651	0.0604308858066489	-0.433899847682474
24005200000	-0.0621460852746943	-0.682940533683755	-0.272792164756751	1.69126043642187	0.198898113313834	0.0840005113074163	0.0583016200229959	-0.431968922997708
24255150000	-0.0700256886808317	-0.68102373888285	-0.257225199560046	1.68055928887219	0.200214429225795	0.0812713480814195	0.0545111398354257	-0.430668147041302
24505100000	-0.0735875695071022	-0.679851693073264	-0.244772990385018	1.67207348929743	0.198648008346985	0.0820037654167878	0.0509118879379749	-0.430403775921605
24755050000	-0.0785987322275738	-0.675590851463445	-0.234529457589889	1.65933165745979	0.198373727565216	0.0820948334603172	0.050287655065728	-0.428583561574605
25005000000	-0.0825317796979206	-0.672740138977564	-0.22310781477295	1.64730338218576	0.199396003825124	0.0817247991512596	0.0459468331827015	-0.429102569991633
25254950000	-0.0866331734267836	-0.671119519117766	-0.213058497314253	1.63675179140157	0.199936646963621	0.08074571052276	0.0428648957791564	-0.42925676075599
25504900000	-0.0955712283873824	-0.669142130795896	-0.202866217006529	1.63161296104266	0.200220989646487	0.0823402451985456	0.0413596462298117	-0.429543811299209
25754850000	-0.0994901712507551	-0.666423201970653	-0.190766495155314	1.6217229675062	0.199836401426733	0.0814799639798691	0.0374661786601334	-0.427088989537622
26004800000	-0.10814354814439	-0.666371775916115	-0.17644379094236	1.62292927442472	0.202069288411925	0.0805810704008939	0.0341925917322477	-0.429584748879555
26254750000	-0.114181150475018	-0.66585151367687	-0.168101895508153	1.61762354486718	0.204037826892064	0.0808327877626824	0.0325394876152025	-0.430150479113326
26504700000	-0.118036151883204	-0.661538330767739	-0.149127243075034	1.61324904706308	0.20391303921106	0.0769242403257865	0.025456913564204	-0.430374364226649
26754650000	-0.124067363326008	-0.660432987910427	-0.138170451189151	1.60252996388491	0.207002646307505	0.0767356043335427	0.0203120252214156	-0.428881316166347
27004600000	-0.130122143955678	-0.658539846405883	-0.123215374482757	1.60003762435399	0.209374612326187	0.0788686286013348	0.0154573195610495	-0.428548182258012
27254550000	-0.139794910853607	-0.658798170343285	-0.110544987000547	1.59152380394557	0.203889246763301	0.0783702129665299	0.0222339112418477	-0.427505540178581
27504500000	-0.139712507683444	-0.657794088782995	-0.0931418440761683	1.58535148858459	0.20869205565856	0.0794803905061764	0.0164277583898469	-0.429025226309194
27754450000	-0.14323495140541	-0.650699231021733	-0.0860244858421792	1.57761362515161	0.211668185442817	0.074340141421591	0.0127216826092726	-0.429218283946097
28004400000	-0.150813226417472	-0.647922306430488	-0.0706252964142481	1.56557364330804	0.208891681790174	0.0766418040433844	0.00808889703279372	-0.425474397061646
28254350000	-0.163707755546309	-0.646585799437764	-0.0485315401688087	1.56139580003208	0.210550675520455	0.0766298442114358	0.00220321541495785	-0.424110736378242
28504300000	-0.161700249608038	-0.644406793441362	-0.0374769752569372	1.55107223492613	0.212608043608281	0.0745818214550141	0.00152024153800888	-0.429859019957982
28754250000	-0.166410369120215	-0.642183351193885	-0.0270681583224485	1.54465436939567	0.212818973578381	0.0730405495450206	-0.00265525303768109	-0.429256207510705
29004200000	-0.174668836236514	-0.638810240053435	-0.0111289456302508	1.5435771990348	0.213353097188071	0.0739149148233963	0.00121858689258276	-0.426478328561836
29254150000	-0.175155799170419	-0.631722885027715	-0.00208425001925298	1.51779958822294	0.215433238249091	0.0727880334187826	-0.00519238766297693	-0.421842760565652
29504100000	-0.178895125989453	-0.6281562385267	0.00788833122956195	1.50452888339333	0.215863943402807	0.0736261697860973	-0.0104469989309763	-0.423880421283391
29754050000	-0.190632292958054	-0.6313987750369	0.0197784526194287	1.5028710477265	0.218747169953958	0.0731722471030262	-0.00961320179296574	-0.421951357835034
30004000000	-0.199177274288621	-0.615577093147156	0.0396015939935547	1.48180038175326	0.216425959150015	0.0663937442793085	-0.0135156252930293	-0.41427747713804
30253950000	-0.192420668483223	-0.623492958845268	0.0320092854323725	1.49094983566777	0.217041683285588	0.0674303571828609	-0.0121995501759611	-0.422676891866732
30503900000	-0.195806369791001	-0.614973187054012	0.0398450444109123	1.47106091061852	0.217025914711282	0.0697845031009171	-0.0117977023001549	-0.416063945092869
30753850000	-0.203406460208957	-0.615557888510843	0.0535331553883198	1.47057266227563	0.218903578909238	0.0671637702792549	-0.019568760417476	-0.414893533547466
31003800000	-0.20698570065961	-0.610154044375188	0.0632194108290683	1.45708299117312	0.221066184403222	0.0669301616519421	-0.0209338624089794	-0.417733725396065
