# GHz S RI R 50
0.01	0.0270423225834008	0.00156803647858339	0.97285889215071	-0.0018333678649781	0.972858892150711	-0.0018333678649781	0.0270413204609613	0.00157043877697704
0.06	0.0271513355195499	0.00934306179600975	0.972753018420183	-0.0109624062636306	0.972753018420183	-0.0109624062636306	0.0271462890916407	0.00935996869556751
0.11	0.0274174243100976	0.0171129657422242	0.972491044173897	-0.0200860684610826	0.972491044173898	-0.0200860684610826	0.0274002640069478	0.0171449263520674
0.16	0.0278402598529039	0.0248742469656787	0.972073202250586	-0.0292014443281057	0.972073202250586	-0.0292014443281056	0.0278039186292166	0.0249210674926988
0.21	0.0284217562904115	0.0326202141758956	0.971492252566669	-0.0383054767757524	0.97149225256667	-0.0383054767757525	0.028358177680666	0.0326827507377689
0.26	0.0291532422964269	0.0403536372998927	0.970779037215202	-0.0473887207399457	0.970779037215201	-0.0473887207399457	0.0290563072862679	0.04043272080066
0.31	0.0300430833855561	0.0480611531758784	0.969893567558976	-0.0564542236858769	0.969893567558975	-0.0564542236858768	0.0299057344488622	0.0481585628392324
0.36	0.0310848833127296	0.0557474576524989	0.968859941078761	-0.065490458550404	0.968859941078761	-0.065490458550404	0.0308999870441584	0.0558639327289424
0.41	0.0322817221591547	0.0634020046381514	0.967690780534353	-0.0745029170991059	0.967690780534353	-0.0745029170991059	0.0320422178053987	0.0635382395192581
0.46	0.0336283508231453	0.0710257289678342	0.966353861120118	-0.0834774842921991	0.966353861120118	-0.083477484292199	0.0333280616244707	0.0711843973267651
0.51	0.0351273319649525	0.0786107314762652	0.964870416802354	-0.0924153988659855	0.964870416802353	-0.0924153988659854	0.034758142871319	0.0787934255572207
0.56	0.0367748103314927	0.0861551906212965	0.96324968297357	-0.101321658462626	0.963249682973571	-0.101321658462626	0.036331553399135	0.0863645237609963
0.61	0.0385697920776569	0.0936551440275776	0.96147130777533	-0.110177564220397	0.961471307775329	-0.110177564220397	0.0380443098669288	0.0938926225951657
0.66	0.04051189566328	0.101106183485819	0.959554706979482	-0.118984621212034	0.959554706979482	-0.118984621212034	0.0398979648178442	0.101375320904442
0.71	0.0425972888946074	0.108501265358117	0.957490012681639	-0.127742804812955	0.957490012681639	-0.127742804812955	0.0418894998611823	0.108811566672969
0.76	0.0448258402139525	0.115854144884225	0.955287003706368	-0.136452579854507	0.955287003706369	-0.136452579854507	0.0440164880041923	0.11618997788664
0.81	0.0471954476676226	0.123131798472447	0.952954164440347	-0.14509633595112	0.952954164440346	-0.14509633595112	0.0462777668330259	0.123512569673973
0.86	0.0497026724973662	0.130361455553761	0.950472496632918	-0.153683220176001	0.950472496632919	-0.153683220176001	0.0486718427396292	0.130776546394511
0.91	0.0523462348905145	0.137516408281759	0.94786075349198	-0.16220439937403	0.947860753491979	-0.16220439937403	0.0511953841509617	0.137985145834686
0.96	0.0551238490388452	0.144605914906846	0.94510901287899	-0.170660462190104	0.945109012878991	-0.170660462190104	0.0538471556436001	0.145117576949753
1.01	0.0580337077177191	0.15162213363769	0.942236053019274	-0.179043162883789	0.942236053019274	-0.179043162883789	0.0566241845633472	0.152195967211903
1.06	0.0610731007828606	0.15856602084925	0.939242061453278	-0.187362450237067	0.939242061453277	-0.187362450237066	0.0595249183148641	0.159191231826881
1.11	0.0642375328064951	0.165434768205734	0.936096642035538	-0.195598540505291	0.936096642035538	-0.195598540505291	0.0625460663278701	0.166120603706271
1.16	0.0675268018809678	0.172220933717735	0.932858140209866	-0.203757859886384	0.932858140209866	-0.203757859886383	0.0656877862021737	0.172966638309286
1.21	0.0709379649014918	0.178916525695425	0.929477501545057	-0.21182954080258	0.929477501545056	-0.21182954080258	0.0689422189187045	0.17974107815587
1.26	0.074465515402615	0.185535067792966	0.925983631114672	-0.21982840036401	0.925983631114672	-0.21982840036401	0.0723117141556868	0.18643776985493
1.31	0.0781110461076697	0.19206866162989	0.922384926698926	-0.227735240448303	0.922384926698926	-0.227735240448303	0.0757923994048824	0.193038525165709
1.36	0.0818690484374988	0.198504688400237	0.918672422887105	-0.235557667098183	0.918672422887105	-0.235557667098183	0.0793792064556014	0.199560730178564
1.41	0.0857358367126342	0.204850605910427	0.914834685003854	-0.243281056739187	0.914834685003854	-0.243281056739187	0.0830714690791615	0.205991945611585
1.46	0.089708429970763	0.211111599265397	0.91091087139087	-0.250913514707407	0.91091087139087	-0.250913514707407	0.0868665931074518	0.212347382498373
1.51	0.0937893686526466	0.217260739860914	0.906880911702484	-0.258465370904729	0.906880911702483	-0.258465370904729	0.0907610688956938	0.218599756434212
1.56	0.0979712098368332	0.223324131812701	0.902734918861617	-0.26591172359622	0.902734918861616	-0.26591172359622	0.094753706583283	0.224755400760268
1.61	0.102249343529086	0.229274438984428	0.898509831697972	-0.27326368662078	0.898509831697971	-0.27326368662078	0.0988410962938494	0.230817150965406
1.66	0.106619526586318	0.235138217979007	0.894178240644065	-0.280511802345281	0.894178240644064	-0.280511802345281	0.103009788409408	0.236790924057482
1.71	0.111076301563192	0.24088962646979	0.889756304095636	-0.287652994801989	0.889756304095637	-0.287652994801989	0.10727407767521	0.242662149282081
1.76	0.115629166322582	0.246544930420361	0.8852455224758	-0.294712784655831	0.8852455224758	-0.294712784655831	0.111623968368197	0.248435775950372
1.81	0.12026845343676	0.252087812647326	0.880654002945679	-0.301651061878116	0.880654002945678	-0.301651061878116	0.116048375712336	0.254115323229193
1.86	0.124984726585507	0.257519958453109	0.875973116255491	-0.308497525709319	0.875973116255491	-0.308497525709319	0.120559202254849	0.259683995859932
1.91	0.129789307055981	0.262851239526805	0.871219144447349	-0.315229367132013	0.871219144447348	-0.315229367132013	0.125137035775882	0.265159371638179
1.96	0.134661831771334	0.268076024118062	0.866394382651654	-0.321865340189286	0.866394382651655	-0.321865340189287	0.129792210210585	0.270528082291824
2.01	0.139604706530498	0.273187777210018	0.861485678843734	-0.328390166357397	0.861485678843734	-0.328390166357397	0.134526264354246	0.275793637463014
2.06	0.144626504675077	0.278195118452582	0.856513417952088	-0.334799312284256	0.856513417952089	-0.334799312284257	0.139318695802704	0.280952222117167
2.11	0.149710105863213	0.283089488475039	0.851476688011896	-0.341107336160267	0.851476688011894	-0.341107336160267	0.144171415755951	0.286006846277524
2.16	0.154854801353413	0.28786891825219	0.846366150442206	-0.347311337094342	0.846366150442206	-0.347311337094342	0.149093670566382	0.290956375637678
2.21	0.160061269626559	0.292533346252859	0.84120025938798	-0.353400898123806	0.84120025938798	-0.353400898123806	0.154066160267743	0.295799013623602
2.26	0.165331449846163	0.297086555295809	0.835967183340859	-0.359380591519882	0.835967183340859	-0.359380591519882	0.159101579134462	0.300529453663261
2.31	0.17064551370802	0.301537447764897	0.830696712452534	-0.365259031267241	0.830696712452534	-0.365259031267241	0.1641891158077	0.30516749157095
2.36	0.176022312269901	0.305861709195779	0.825349885118584	-0.371011723385299	0.825349885118583	-0.371011723385299	0.16931784833852	0.309685917533151
2.41	0.181444415728557	0.310087380527051	0.819971093486596	-0.376666794042417	0.819971093486597	-0.376666794042417	0.174499927180269	0.314115679994212
2.46	0.186902942806207	0.314195056313296	0.814539966429742	-0.382215710254495	0.814539966429742	-0.382215710254495	0.179728577946109	0.318417433375034
2.51	0.192415992443775	0.318193696769604	0.809066337926837	-0.387641417512382	0.809066337926837	-0.387641417512382	0.184988945783553	0.322627010563983
2.56	0.197971298321602	0.322068995695007	0.803549605847877	-0.392975863813124	0.803549605847876	-0.392975863813124	0.19029855065276	0.326733173641462
2.61	0.203559103858168	0.325842441849948	0.797995489531691	-0.398187872275181	0.797995489531691	-0.398187872275181	0.195640689994981	0.330726400614707
2.66	0.209177032585938	0.329508557150858	0.792397183042086	-0.403296243756374	0.792397183042086	-0.403296243756374	0.20102205104228	0.334612387398779
2.71	0.214832574480453	0.333057106233981	0.78677966657046	-0.408295003797399	0.78677966657046	-0.408295003797399	0.206427815895486	0.33839849548493
2.76	0.220520841940394	0.336488856102917	0.781116564457757	-0.413190658207339	0.781116564457757	-0.413190658207339	0.211864270772704	0.342076726202461
2.81	0.226238312475492	0.339822901557871	0.775434914141422	-0.417968417832919	0.775434914141422	-0.417968417832919	0.2173287751718	0.345656265162709
2.86	0.231973786384142	0.343039054849697	0.769719678581425	-0.422649892172668	0.769719678581424	-0.422649892172667	0.222820185606886	0.349117741067526
2.91	0.237730474043375	0.346153644377085	0.76398063969441	-0.427221251027073	0.763980639694409	-0.427221251027073	0.228330522673523	0.352486571446232
2.96	0.243502365359236	0.349153748821886	0.758218229693604	-0.431690789743166	0.758218229693604	-0.431690789743166	0.233853792486474	0.355749889377535
3.01	0.249306638405126	0.352050938857748	0.752431522042313	-0.436048088490505	0.752431522042313	-0.436048088490505	0.239407104502252	0.358919116237463
3.06	0.255113742801526	0.354838553808175	0.746643543953648	-0.440306519469725	0.746643543953648	-0.440306519469725	0.244960636130778	0.361987530834812
3.11	0.260945017035923	0.357519412487846	0.740832119022689	-0.444459462740097	0.740832119022689	-0.444459462740097	0.250537273401172	0.364948162252009
3.16	0.266783211060026	0.360098483758758	0.735004719623758	-0.448523627698717	0.735004719623758	-0.448523627698717	0.2561281100352	0.367817146450452
3.21	0.272626485361942	0.362572371089244	0.729170159652926	-0.452473647199799	0.729170159652925	-0.452473647199799	0.261732669561254	0.370581168955941
3.26	0.278478344553545	0.364943702411633	0.723329722537277	-0.456321144030253	0.723329722537277	-0.456321144030253	0.267333305863693	0.373250019406749
3.31	0.284333210458298	0.367209899601423	0.717474900410035	-0.460067949101038	0.717474900410035	-0.460067949101038	0.272934275599952	0.375822700068953
3.36	0.290192831720642	0.369380819505558	0.71161363244533	-0.463730697399582	0.71161363244533	-0.463730697399581	0.278548561473878	0.378300358974904
3.41	0.296052821155576	0.371449663581015	0.705759894294924	-0.467281805701157	0.705759894294923	-0.467281805701156	0.284170224249954	0.380686212058646
3.46	0.301919372419133	0.373412808879992	0.699897036291829	-0.470749791716344	0.699897036291829	-0.470749791716344	0.289785829200952	0.382973770610648
3.51	0.307771730976716	0.375278153609073	0.694021793272828	-0.474113844931651	0.694021793272827	-0.474113844931651	0.295395716670957	0.385163850102771
3.56	0.313624757680641	0.37706178110063	0.688165828479174	-0.477386289236654	0.688165828479175	-0.477386289236655	0.301004711539412	0.387271216403685
3.61	0.319482079195981	0.378740095891543	0.682310230121279	-0.480574643963647	0.682310230121279	-0.480574643963647	0.306623480874931	0.389293631514071
3.66	0.32532268322141	0.380319532185258	0.676450064103983	-0.483657529427616	0.676450064103983	-0.483657529427616	0.312214204509584	0.391214384440491
3.71	0.33115387750108	0.381815821153613	0.670604824349754	-0.486648734838264	0.670604824349753	-0.486648734838264	0.317813620245772	0.3930540140368
3.76	0.336979067213124	0.383219071656721	0.664766525845817	-0.489559183978047	0.664766525845818	-0.489559183978047	0.323393933145627	0.394807989071963
3.81	0.342788432972157	0.384519630968626	0.658929672230929	-0.492381407336102	0.658929672230929	-0.492381407336102	0.328975180674499	0.396471313444875
3.86	0.348583503563478	0.385735811738438	0.653113509191418	-0.495109312434291	0.653113509191418	-0.495109312434291	0.33453057856844	0.398047515797662
3.91	0.354376386904227	0.386865697533593	0.64729741924173	-0.49776410184548	0.647297419241729	-0.49776410184548	0.340080539732472	0.399546466443528
3.96	0.360134841331948	0.387918304963169	0.641500693380052	-0.500324096107642	0.641500693380052	-0.500324096107642	0.345614048980615	0.400970142673508
4.01	0.365880949067809	0.388868318135602	0.63571578280814	-0.502804808349662	0.63571578280814	-0.502804808349662	0.351141865357831	0.402301899688777
4.06	0.371612193412353	0.389741649600436	0.629931611627156	-0.505201555437188	0.629931611627156	-0.505201555437187	0.356633556597371	0.403552695875683
4.11	0.377329809737065	0.39053440122806	0.624198633256078	-0.5075165802807	0.624198633256078	-0.5075165802807	0.362127280700546	0.404735042216916
4.16	0.383020083791856	0.391233640302545	0.618461592781377	-0.50975510724115	0.618461592781377	-0.50975510724115	0.367600259029723	0.405834647112817
4.21	0.388691757326861	0.391863828675008	0.612738565230653	-0.511916171577687	0.612738565230653	-0.511916171577687	0.373044773653485	0.406852670325623
4.26	0.394339606401886	0.39241676338787	0.607044920339259	-0.513993005194011	0.607044920339259	-0.513993005194011	0.378471615662144	0.407804156891352
4.31	0.399960063210103	0.392874437335706	0.601359531168007	-0.515997720707612	0.601359531168007	-0.515997720707612	0.383877517404391	0.408670862122389
4.36	0.405569741119082	0.393271089550129	0.595710537670451	-0.517931852480552	0.595710537670451	-0.517931852480552	0.389270435496988	0.409475866817899
4.41	0.411141630818406	0.393580600782009	0.590076513407514	-0.519782799179857	0.590076513407514	-0.519782799179858	0.394622121211636	0.410202456145833
4.46	0.416685240464998	0.393817126641481	0.584459211606031	-0.521577539459676	0.584459211606031	-0.521577539459676	0.399963211499441	0.410859114409748
4.51	0.422212142629405	0.393992097186793	0.578873376088938	-0.523289521876862	0.578873376088938	-0.523289521876862	0.405285380042333	0.411453246104949
4.56	0.427708942517853	0.394089477491137	0.573305787904516	-0.52493964366046	0.573305787904515	-0.52493964366046	0.410575702805744	0.411969121681904
4.61	0.433168664704869	0.394107246515831	0.567773814858277	-0.526511364594615	0.567773814858277	-0.526511364594615	0.415832910456017	0.412425770387027
4.66	0.43860736478468	0.394058487464861	0.562249215821432	-0.528022510805719	0.562249215821432	-0.528022510805719	0.421069196977947	0.412805434178946
4.71	0.444011503890511	0.393944126494832	0.556765953126884	-0.529459829241618	0.556765953126884	-0.529459829241619	0.426276466818447	0.413130298934805
4.76	0.449382190128115	0.39376258738618	0.551297811924992	-0.530844664403859	0.551297811924992	-0.530844664403859	0.43145833082971	0.413389344586126
4.81	0.454732110243387	0.393509548542631	0.545871202563263	-0.532159187073179	0.545871202563263	-0.532159187073179	0.436613067139821	0.41359569949471
4.86	0.460044679267429	0.393192456805307	0.540460929351569	-0.533405596244334	0.540460929351569	-0.533405596244334	0.441740252911597	0.413729461470417
4.91	0.465326071796946	0.392824884245471	0.535087380442519	-0.534593853863936	0.535087380442519	-0.534593853863937	0.446836031685257	0.413802339969128
4.96	0.470577086861207	0.392382632953603	0.529745776190613	-0.535730014320903	0.529745776190612	-0.535730014320903	0.451905094835285	0.413821354103185
5.01	0.475793442639058	0.391884750492593	0.524422293683472	-0.536795387253431	0.524422293683472	-0.536795387253431	0.456937376641928	0.413783947334619
5.06	0.480977697282	0.39131975163982	0.519139333901967	-0.537807694820243	0.519139333901967	-0.537807694820243	0.461945203216601	0.413681178369013
5.11	0.486125985103858	0.390693728843017	0.513881316123141	-0.538762291998686	0.513881316123141	-0.538762291998686	0.466910530433874	0.413535908760288
5.16	0.491234494862153	0.390015318441646	0.508647256876174	-0.539660254864231	0.508647256876174	-0.539660254864231	0.471857859406276	0.413322492333651
5.21	0.496317039126065	0.389275204880773	0.503449064229423	-0.54051013540326	0.503449064229423	-0.54051013540326	0.476774720377461	0.413056668529175
5.26	0.501363133383907	0.388482562973353	0.498284167837396	-0.541300281417093	0.498284167837396	-0.541300281417093	0.481640855862516	0.412744941090458
5.31	0.506355998517639	0.387621669148154	0.493143615637612	-0.542028645122049	0.493143615637612	-0.542028645122049	0.486481301579252	0.412370941824356
5.36	0.511343759959873	0.386728549160166	0.488046086377732	-0.542724255146391	0.488046086377732	-0.542724255146391	0.491303761347584	0.41196231664001
5.41	0.516271932214802	0.385770463775108	0.482974045292067	-0.543353819332119	0.482974045292066	-0.543353819332118	0.496084306521273	0.41149250880469
5.46	0.521177575145395	0.384767984597477	0.477941528244064	-0.543940233925599	0.477941528244064	-0.543940233925598	0.500827669299238	0.410985244195611
5.51	0.52604607274555	0.383702978692168	0.472930056193689	-0.544480190686564	0.472930056193689	-0.544480190686564	0.505551353527212	0.410419714413736
5.56	0.530873048894118	0.382596355791681	0.467967327278444	-0.544971531812137	0.467967327278444	-0.544971531812137	0.510230751348629	0.40981195307272
5.61	0.535657418919815	0.381439766933313	0.463013473764823	-0.545422930397266	0.463013473764823	-0.545422930397266	0.514877800252343	0.409146346281517
5.66	0.540406364373154	0.380231120376093	0.458107332110335	-0.54581045413946	0.458107332110334	-0.545810454139459	0.519482343150193	0.408447336623299
5.71	0.545126454745965	0.378986819852665	0.453235468980202	-0.546170846110796	0.453235468980202	-0.546170846110797	0.524067015414167	0.407705606056359
5.76	0.549809765599962	0.377690504075366	0.448403268935524	-0.546478893554503	0.448403268935524	-0.546478893554503	0.528612951912078	0.406911215322775
5.81	0.554447960905247	0.376336910894979	0.443580665020096	-0.546742583995648	0.443580665020096	-0.546742583995648	0.533116799610152	0.406080661456554
5.86	0.559047293713911	0.374950093166613	0.438809910035743	-0.54696130602741	0.438809910035743	-0.54696130602741	0.537600244018275	0.405211908299482
5.91	0.563614526185732	0.373523016881321	0.434075124490982	-0.547144579383233	0.434075124490981	-0.547144579383233	0.542039755234246	0.404300105731004
5.96	0.568150697662367	0.372053713712234	0.429370499722408	-0.547301304828026	0.429370499722408	-0.547301304828026	0.54645545042922	0.403348626616527
6.01	0.572640076239573	0.370531663947671	0.424696705394038	-0.547390796260969	0.424696705394038	-0.547390796260969	0.550819556366658	0.402353144916793
6.06	0.577086893607611	0.368974807358047	0.420054803227806	-0.547462862721807	0.420054803227806	-0.547462862721807	0.55517013454089	0.401320854724154
6.11	0.581509276104173	0.367381538699307	0.415452532050334	-0.547490129127738	0.415452532050334	-0.547490129127738	0.559471744488236	0.400256666406803
6.16	0.585885251688159	0.365758943791869	0.410883969889194	-0.547485796964352	0.410883969889194	-0.547485796964353	0.56374613429024	0.399157989809125
6.21	0.590222919247076	0.364080850748588	0.406340676469916	-0.547442780634665	0.406340676469916	-0.547442780634665	0.567977763135767	0.398013734922054
6.26	0.594526535912082	0.362367424059647	0.401840587835763	-0.547362992677289	0.401840587835763	-0.547362992677289	0.572182249668773	0.396836048110345
6.31	0.598785295364238	0.360620476221457	0.397368757529953	-0.54724236532189	0.397368757529953	-0.54724236532189	0.576346161293193	0.395637198288456
6.36	0.603013466863051	0.358841734169981	0.392934981128342	-0.547089989466684	0.392934981128343	-0.547089989466684	0.580479619928429	0.394396580743563
6.41	0.607202818707794	0.357023817361638	0.388529529759468	-0.54692079820183	0.388529529759468	-0.54692079820183	0.584581516005239	0.393119841404032
6.46	0.611350682152291	0.355173304944479	0.384160649071786	-0.546707670834613	0.384160649071786	-0.546707670834614	0.588648801750138	0.391812906245278
6.51	0.615465098140195	0.35329362586131	0.379822030588905	-0.546462725519043	0.379822030588904	-0.546462725519043	0.592670420260361	0.39047362408183
6.56	0.619541418312314	0.351374296788712	0.375518212740172	-0.546186936850568	0.375518212740172	-0.546186936850568	0.596667938603701	0.389110200636591
